!Murata Part Number: GRM0225C1A101JD05
!These Parameters are Measured in Series Mode Connection
!       o--ll--o
!Port1            Port2
!       o------o
!Operation Temp=25[C], DC Bias Voltage=0[V]
!Freq. Start=100[MHz] Stop=8.5[GHz], 401[Steps]
# Hz S RI R 50
!Freq.(Hz)	S 11(Real)	S 11(Imag)	S 21(Real)	S 21(Imag)	S 12(Real)	S 12(Imag)	S 22(Real)	S 22(Imag)	
100000000 0.025070636157330788 -0.1536848084154871 0.9749293638426693 0.1536848084154871 0.9749293638426693 0.1536848084154871 0.025070636157330788 -0.1536848084154871
121000000 0.017388225541254965 -0.1274914431955767 0.9826117744587449 0.1274914431955767 0.9826117744587449 0.1274914431955767 0.017388225541254965 -0.1274914431955767
142000000 0.01279898334572501 -0.10861311500758201 0.9872010166542748 0.10861311500758201 0.9872010166542748 0.10861311500758201 0.01279898334572501 -0.10861311500758201
163000000 0.009845606307726023 -0.09436479246603435 0.9901543936922742 0.09436479246603435 0.9901543936922742 0.09436479246603435 0.009845606307726023 -0.09436479246603435
184000000 0.007836318478672706 -0.08322105033153317 0.9921636815213273 0.08322105033153317 0.9921636815213273 0.08322105033153317 0.007836318478672706 -0.08322105033153317
205000000 0.006409310210381906 -0.07425591908826458 0.9935906897896178 0.07425591908826458 0.9935906897896178 0.07425591908826458 0.006409310210381906 -0.07425591908826458
226000000 0.0053606859400684775 -0.06687648527446574 0.9946393140599313 0.06687648527446574 0.9946393140599313 0.06687648527446574 0.0053606859400684775 -0.06687648527446574
247000000 0.004568532021380176 -0.060686198296176094 0.9954314679786197 0.060686198296176094 0.9954314679786197 0.060686198296176094 0.004568532021380176 -0.060686198296176094
268000000 0.00395635950526989 -0.05541010654108656 0.9960436404947302 0.05541010654108656 0.9960436404947302 0.05541010654108656 0.00395635950526989 -0.05541010654108656
289000000 0.0034742258217468846 -0.05085171650645876 0.9965257741782533 0.05085171650645876 0.9965257741782533 0.05085171650645876 0.0034742258217468846 -0.05085171650645876
310000000 0.003088406781050093 -0.04686694788881501 0.9969115932189496 0.04686694788881501 0.9969115932189496 0.04686694788881501 0.003088406781050093 -0.04686694788881501
331000000 0.0027754663686714847 -0.043347791714324214 0.9972245336313286 0.043347791714324214 0.9972245336313286 0.043347791714324214 0.0027754663686714847 -0.043347791714324214
352000000 0.0025187087700276525 -0.04021171046662473 0.9974812912299725 0.04021171046662473 0.9974812912299725 0.04021171046662473 0.0025187087700276525 -0.04021171046662473
373000000 0.002305979165720996 -0.03739456135175448 0.9976940208342792 0.03739456135175448 0.9976940208342792 0.03739456135175448 0.002305979165720996 -0.03739456135175448
394000000 0.002128257915951342 -0.034845750652978 0.9978717420840487 0.034845750652978 0.9978717420840487 0.034845750652978 0.002128257915951342 -0.034845750652978
415000000 0.001978737269041601 -0.03252484080226362 0.9980212627309584 0.03252484080226362 0.9980212627309584 0.03252484080226362 0.001978737269041601 -0.03252484080226362
436000000 0.0018522002794324171 -0.030399126956088655 0.9981477997205679 0.030399126956088655 0.9981477997205679 0.030399126956088655 0.0018522002794324171 -0.030399126956088655
457000000 0.0017445940015393467 -0.028441874979968924 0.9982554059984604 0.028441874979968924 0.9982554059984604 0.028441874979968924 0.0017445940015393467 -0.028441874979968924
478000000 0.0016527305178346756 -0.02663101964995216 0.9983472694821651 0.02663101964995216 0.9983472694821651 0.02663101964995216 0.0016527305178346756 -0.02663101964995216
499000000 0.0015740738627311231 -0.024948188834031108 0.9984259261372689 0.024948188834031108 0.9984259261372689 0.024948188834031108 0.0015740738627311231 -0.024948188834031108
520000000 0.0015065857657567332 -0.02337796233058724 0.9984934142342432 0.02337796233058724 0.9984934142342432 0.02337796233058724 0.0015065857657567332 -0.02337796233058724
541000000 0.0014486123714747409 -0.02190730212840023 0.9985513876285255 0.02190730212840023 0.9985513876285255 0.02190730212840023 0.0014486123714747409 -0.02190730212840023
562000000 0.0013987999575786954 -0.020525109589790643 0.9986012000424213 0.020525109589790643 0.9986012000424213 0.020525109589790643 0.0013987999575786954 -0.020525109589790643
583000000 0.0013560314713877242 -0.0192218777775711 0.9986439685286124 0.0192218777775711 0.9986439685286124 0.0192218777775711 0.0013560314713877242 -0.0192218777775711
604000000 0.001319378211168411 -0.017989415919646843 0.9986806217888318 0.017989415919646843 0.9986806217888318 0.017989415919646843 0.001319378211168411 -0.017989415919646843
625000000 0.001288062660066729 -0.01682062914626418 0.9987119373399332 0.01682062914626418 0.9987119373399332 0.01682062914626418 0.001288062660066729 -0.01682062914626418
646000000 0.0012614296259740305 -0.015709340992545992 0.9987385703740259 0.015709340992545992 0.9987385703740259 0.015709340992545992 0.0012614296259740305 -0.015709340992545992
667000000 0.0012389236323587472 -0.014650149290264942 0.9987610763676411 0.014650149290264942 0.9987610763676411 0.014650149290264942 0.0012389236323587472 -0.014650149290264942
688000000 0.0012200710595615285 -0.013638308349409952 0.9987799289404384 0.013638308349409952 0.9987799289404384 0.013638308349409952 0.0012200710595615285 -0.013638308349409952
709000000 0.001204465929184771 -0.012669632003451708 0.9987955340708153 0.012669632003451708 0.9987955340708153 0.012669632003451708 0.001204465929184771 -0.012669632003451708
730000000 0.001191758506174852 -0.011740413334757007 0.9988082414938251 0.011740413334757007 0.9988082414938251 0.011740413334757007 0.001191758506174852 -0.011740413334757007
751000000 0.0011816460976169462 -0.010847357828091774 0.9988183539023829 0.010847357828091774 0.9988183539023829 0.010847357828091774 0.0011816460976169462 -0.010847357828091774
772000000 0.0011738655769646601 -0.00998752740473076 0.9988261344230354 0.00998752740473076 0.9988261344230354 0.00998752740473076 0.0011738655769646601 -0.00998752740473076
793000000 0.0011681872730985275 -0.009158293327134817 0.9988318127269016 0.009158293327134817 0.9988318127269016 0.009158293327134817 0.0011681872730985275 -0.009158293327134817
814000000 0.0011644099461553998 -0.008357296377368033 0.9988355900538447 0.008357296377368033 0.9988355900538447 0.008357296377368033 0.0011644099461553998 -0.008357296377368033
835000000 0.0011623566341597326 -0.007582413032505053 0.9988376433658401 0.007582413032505053 0.9988376433658401 0.007582413032505053 0.0011623566341597326 -0.007582413032505053
856000000 0.0011618712015588715 -0.006831726609969825 0.9988381287984408 0.006831726609969825 0.9988381287984408 0.006831726609969825 0.0011618712015588715 -0.006831726609969825
877000000 0.001162815456717667 -0.006103502551834466 0.9988371845432825 0.006103502551834466 0.9988371845432825 0.006103502551834466 0.001162815456717667 -0.006103502551834466
898000000 0.0011650667330837638 -0.005396167172075109 0.9988349332669163 0.005396167172075109 0.9988349332669163 0.005396167172075109 0.0011650667330837638 -0.005396167172075109
919000000 0.0011685158501514123 -0.004708289313991274 0.9988314841498489 0.004708289313991274 0.9988314841498489 0.004708289313991274 0.0011685158501514123 -0.004708289313991274
940000000 0.0011730653870419498 -0.004038564463514816 0.9988269346129579 0.004038564463514816 0.9988269346129579 0.004038564463514816 0.0011730653870419498 -0.004038564463514816
961000000 0.0011786282146048462 -0.0033858009433405736 0.998821371785395 0.0033858009433405736 0.998821371785395 0.0033858009433405736 0.0011786282146048462 -0.0033858009433405736
982000000 0.0011851262422617375 -0.0027489078768194834 0.9988148737577381 0.0027489078768194834 0.9988148737577381 0.0027489078768194834 0.0011851262422617375 -0.0027489078768194834
1003000000 0.0011924893439969402 -0.002126884662537654 0.9988075106560028 0.002126884662537654 0.9988075106560028 0.002126884662537654 0.0011924893439969402 -0.002126884662537654
1024000000 0.0012006544344179506 -0.0015188117429203497 0.9987993455655819 0.0015188117429203497 0.9987993455655819 0.0015188117429203497 0.0012006544344179506 -0.0015188117429203497
1045000000 0.001209564671031527 -0.000923842484964533 0.9987904353289684 0.000923842484964533 0.9987904353289684 0.000923842484964533 0.001209564671031527 -0.000923842484964533
1066000000 0.001219168763083254 -0.00034119601982067846 0.9987808312369167 0.00034119601982067846 0.9987808312369167 0.00034119601982067846 0.001219168763083254 -0.00034119601982067846
1087000000 0.0012294203707054357 0.00022984908840219598 0.9987705796292947 -0.00022984908840219598 0.9987705796292947 -0.00022984908840219598 0.0012294203707054357 0.00022984908840219598
1108000000 0.0012402775808760106 0.0007899604546062459 0.9987597224191241 -0.0007899604546062459 0.9987597224191241 -0.0007899604546062459 0.0012402775808760106 0.0007899604546062459
1129000000 0.0012517024489394103 0.001339756859098023 0.9987482975510608 -0.001339756859098023 0.9987482975510608 -0.001339756859098023 0.0012517024489394103 0.001339756859098023
1150000000 0.0012636605962803753 0.0018798126883860869 0.9987363394037196 -0.0018798126883860869 0.9987363394037196 -0.0018798126883860869 0.0012636605962803753 0.0018798126883860869
1171000000 0.001276120856253524 0.002410661898898116 0.9987238791437466 -0.002410661898898116 0.9987238791437466 -0.002410661898898116 0.001276120856253524 0.002410661898898116
1192000000 0.001289054961718067 0.0029328015624814283 0.9987109450382821 -0.0029328015624814283 0.9987109450382821 -0.0029328015624814283 0.001289054961718067 0.0029328015624814283
1213000000 0.0013024372685586484 0.003446695044401369 0.9986975627314413 -0.003446695044401369 0.9986975627314413 -0.003446695044401369 0.0013024372685586484 0.003446695044401369
1234000000 0.0013162445104298764 0.0039527748576487585 0.9986837554895701 -0.0039527748576487585 0.9986837554895701 -0.0039527748576487585 0.0013162445104298764 0.0039527748576487585
1255000000 0.001330455580675678 0.0044514452315031275 0.9986695444193244 -0.0044514452315031275 0.9986695444193244 -0.0044514452315031275 0.001330455580675678 0.0044514452315031275
1276000000 0.0013450513379710401 0.0049430844273013076 0.998654948662029 -0.0049430844273013076 0.998654948662029 -0.0049430844273013076 0.0013450513379710401 0.0049430844273013076
1297000000 0.0013600144327336812 0.005428046830091972 0.9986399855672664 -0.005428046830091972 0.9986399855672664 -0.005428046830091972 0.0013600144327336812 0.005428046830091972
1318000000 0.0013753291517736657 0.005906664841199147 0.9986246708482263 -0.005906664841199147 0.9986246708482263 -0.005906664841199147 0.0013753291517736657 0.005906664841199147
1339000000 0.0013909812790036235 0.0063792505935765876 0.9986090187209963 -0.0063792505935765876 0.9986090187209963 -0.0063792505935765876 0.0013909812790036235 0.0063792505935765876
1360000000 0.0014069579703321938 0.006846097509130155 0.998593042029668 -0.006846097509130155 0.998593042029668 -0.006846097509130155 0.0014069579703321938 0.006846097509130155
1381000000 0.0014232476411178327 0.007307481714850822 0.9985767523588821 -0.007307481714850822 0.9985767523588821 -0.007307481714850822 0.0014232476411178327 0.007307481714850822
1402000000 0.0014398398647766236 0.0077636633325814785 0.9985601601352234 -0.0077636633325814785 0.9985601601352234 -0.0077636633325814785 0.0014398398647766236 0.0077636633325814785
1423000000 0.0014567252813224494 0.008214887655489325 0.9985432747186774 -0.008214887655489325 0.9985432747186774 -0.008214887655489325 0.0014567252813224494 0.008214887655489325
1444000000 0.0014738955147759784 0.00866138622279432 0.9985261044852242 -0.00866138622279432 0.9985261044852242 -0.00866138622279432 0.0014738955147759784 0.00866138622279432
1465000000 0.0014913430985145045 0.009103377802978721 0.9985086569014854 -0.009103377802978721 0.9985086569014854 -0.009103377802978721 0.0014913430985145045 0.009103377802978721
1486000000 0.0015090614077514415 0.00954106929454682 0.9984909385922487 -0.00954106929454682 0.9984909385922487 -0.00954106929454682 0.0015090614077514415 0.00954106929454682
1507000000 0.0015270445984349814 0.009974656552392781 0.9984729554015652 -0.009974656552392781 0.9984729554015652 -0.009974656552392781 0.0015270445984349814 0.009974656552392781
1528000000 0.0015452875519427053 0.010404325146949302 0.9984547124480575 -0.010404325146949302 0.9984547124480575 -0.010404325146949302 0.0015452875519427053 0.010404325146949302
1549000000 0.0015637858250246522 0.010830251062512274 0.9984362141749753 -0.010830251062512274 0.9984362141749753 -0.010830251062512274 0.0015637858250246522 0.010830251062512274
1570000000 0.0015825356045134113 0.011252601340453625 0.9984174643954866 -0.011252601340453625 0.9984174643954866 -0.011252601340453625 0.0015825356045134113 0.011252601340453625
1591000000 0.00160153366637755 0.011671534672432643 0.9983984663336224 -0.011671534672432643 0.9983984663336224 -0.011671534672432643 0.00160153366637755 0.011671534672432643
1612000000 0.001620777338745405 0.012087201948185133 0.9983792226612546 -0.012087201948185133 0.9983792226612546 -0.012087201948185133 0.001620777338745405 0.012087201948185133
1633000000 0.0016402644685709641 0.012499746762000797 0.9983597355314291 -0.012499746762000797 0.9983597355314291 -0.012499746762000797 0.0016402644685709641 0.012499746762000797
1654000000 0.001659993391653177 0.012909305881583922 0.9983400066083468 -0.012909305881583922 0.9983400066083468 -0.012909305881583922 0.001659993391653177 0.012909305881583922
1675000000 0.0016799629057553036 0.013316009682624561 0.9983200370942447 -0.013316009682624561 0.9983200370942447 -0.013316009682624561 0.0016799629057553036 0.013316009682624561
1696000000 0.001700172246602484 0.013719982552080654 0.9982998277533977 -0.013719982552080654 0.9982998277533977 -0.013719982552080654 0.001700172246602484 0.013719982552080654
1717000000 0.0017206210665641675 0.014121343262881404 0.998279378933436 -0.014121343262881404 0.998279378933436 -0.014121343262881404 0.0017206210665641675 0.014121343262881404
1738000000 0.001741309415853878 0.014520205322503577 0.9982586905841463 -0.014520205322503577 0.9982586905841463 -0.014520205322503577 0.001741309415853878 0.014520205322503577
1759000000 0.0017622377261024829 0.014916677297642374 0.9982377622738976 -0.014916677297642374 0.9982377622738976 -0.014916677297642374 0.0017622377261024829 0.014916677297642374
1780000000 0.001783406796182928 0.015310863116992882 0.9982165932038171 -0.015310863116992882 0.9982165932038171 -0.015310863116992882 0.001783406796182928 0.015310863116992882
1801000000 0.0018048177801848631 0.0157028623539748 0.9981951822198151 -0.0157028623539748 0.9981951822198151 -0.0157028623539748 0.0018048177801848631 0.0157028623539748
1822000000 0.0018264721774568294 0.01609277049106904 0.9981735278225434 -0.01609277049106904 0.9981735278225434 -0.01609277049106904 0.0018264721774568294 0.01609277049106904
1843000000 0.0018483718246521037 0.016480679167288004 0.9981516281753481 -0.016480679167288004 0.9981516281753481 -0.016480679167288004 0.0018483718246521037 0.016480679167288004
1864000000 0.001870518889732183 0.016866676410169933 0.9981294811102677 -0.016866676410169933 0.9981294811102677 -0.016866676410169933 0.001870518889732183 0.016866676410169933
1885000000 0.0018929158678994543 0.017250846853570034 0.9981070841321006 -0.017250846853570034 0.9981070841321006 -0.017250846853570034 0.0018929158678994543 0.017250846853570034
1906000000 0.0019155655794481038 0.017633271942415114 0.9980844344205518 -0.017633271942415114 0.9980844344205518 -0.017633271942415114 0.0019155655794481038 0.017633271942415114
1927000000 0.0019384711695401428 0.01801403012549434 0.9980615288304597 -0.01801403012549434 0.9980615288304597 -0.01801403012549434 0.0019384711695401428 0.01801403012549434
1948000000 0.001961636109931624 0.018393197037273067 0.9980383638900684 -0.018393197037273067 0.9980383638900684 -0.018393197037273067 0.001961636109931624 0.018393197037273067
1969000000 0.001985064202693232 0.01877084566964072 0.9980149357973068 -0.01877084566964072 0.9980149357973068 -0.01877084566964072 0.001985064202693232 0.01877084566964072
1990000000 0.0020087595859895305 0.01914704653443544 0.9979912404140105 -0.01914704653443544 0.9979912404140105 -0.01914704653443544 0.0020087595859895305 0.01914704653443544
2011000000 0.002032726742002759 0.01952186781752609 0.9979672732579972 -0.01952186781752609 0.9979672732579972 -0.01952186781752609 0.002032726742002759 0.01952186781752609
2032000000 0.002056970507110394 0.019895375525177783 0.9979430294928896 -0.019895375525177783 0.9979430294928896 -0.019895375525177783 0.002056970507110394 0.019895375525177783
2053000000 0.002081496084451295 0.02026763362337697 0.9979185039155486 -0.02026763362337697 0.9979185039155486 -0.02026763362337697 0.002081496084451295 0.02026763362337697
2074000000 0.00210630905904349 0.02063870417074809 0.9978936909409564 -0.02063870417074809 0.9978936909409564 -0.02063870417074809 0.00210630905904349 0.02063870417074809
2095000000 0.0021314154156481116 0.021008647445653394 0.9978685845843518 -0.021008647445653394 0.9978685845843518 -0.021008647445653394 0.0021314154156481116 0.021008647445653394
2116000000 0.0021568215596092844 0.021377522068031892 0.9978431784403908 -0.021377522068031892 0.9978431784403908 -0.021377522068031892 0.0021568215596092844 0.021377522068031892
2137000000 0.002182534340939628 0.02174538511650052 0.9978174656590604 -0.02174538511650052 0.9978174656590604 -0.02174538511650052 0.002182534340939628 0.02174538511650052
2158000000 0.002208561081966207 0.022112292241211282 0.9977914389180338 -0.022112292241211282 0.9977914389180338 -0.022112292241211282 0.002208561081966207 0.022112292241211282
2179000000 0.0022349096089033784 0.022478297772930672 0.997765090391097 -0.022478297772930672 0.997765090391097 -0.022478297772930672 0.0022349096089033784 0.022478297772930672
2200000000 0.0022615882877780424 0.022843454828782504 0.9977384117122219 -0.022843454828782504 0.9977384117122219 -0.022843454828782504 0.0022615882877780424 0.022843454828782504
2221000000 0.0022886060652007514 0.0232078154150712 0.9977113939347991 -0.0232078154150712 0.9977113939347991 -0.0232078154150712 0.0022886060652007514 0.0232078154150712
2242000000 0.002315972514554489 0.023571430527578548 0.9976840274854456 -0.023571430527578548 0.9976840274854456 -0.023571430527578548 0.002315972514554489 0.023571430527578548
2263000000 0.002343697888263718 0.02393435024970336 0.9976563021117362 -0.02393435024970336 0.9976563021117362 -0.02393435024970336 0.002343697888263718 0.02393435024970336
2284000000 0.002371793176911602 0.02429662384878756 0.9976282068230885 -0.02429662384878756 0.9976282068230885 -0.02429662384878756 0.002371793176911602 0.02429662384878756
2305000000 0.0024002701760958986 0.024658299870943808 0.9975997298239043 -0.024658299870943808 0.9975997298239043 -0.024658299870943808 0.0024002701760958986 0.024658299870943808
2326000000 0.002429141562057125 0.02501942623466703 0.997570858437943 -0.02501942623466703 0.997570858437943 -0.02501942623466703 0.002429141562057125 0.02501942623466703
2347000000 0.0024584209772798814 0.025380050323472802 0.99754157902272 -0.025380050323472802 0.99754157902272 -0.025380050323472802 0.0024584209772798814 0.025380050323472802
2368000000 0.0024881231274643694 0.02574021907775622 0.9975118768725355 -0.02574021907775622 0.9975118768725355 -0.02574021907775622 0.0024881231274643694 0.02574021907775622
2389000000 0.0025182638914954657 0.026099979086003658 0.9974817361085047 -0.026099979086003658 0.9974817361085047 -0.026099979086003658 0.0025182638914954657 0.026099979086003658
