!Murata Part Number: GRM022B11A331KA01
!These Parameters are Measured in Series Mode Connection
!       o--ll--o
!Port1            Port2
!       o------o
!Operation Temp=25[C], DC Bias Voltage=0[V]
!Freq. Start=1[MHz] Stop=6[GHz], 401[Steps]
# Hz S RI R 50
!Freq.(Hz)	S 11(Real)	S 11(Imag)	S 21(Real)	S 21(Imag)	S 12(Real)	S 12(Imag)	S 22(Real)	S 22(Imag)	
1000000 0.9565195438213077 -0.19268793398944783 0.043480456178692374 0.19268793398944783 0.043480456178692374 0.19268793398944783 0.9565195438213077 -0.19268793398944783
1021987.0156634536 0.9548069440086023 -0.19647237793468117 0.045193055991397585 0.19647237793468117 0.045193055991397585 0.19647237793468117 0.9548069440086023 -0.19647237793468117
1044457.4601846923 0.9530291575893207 -0.2003173291857344 0.046970842410679316 0.2003173291857344 0.046970842410679316 0.2003173291857344 0.9530291575893207 -0.2003173291857344
1067421.9627215841 0.9511838273682174 -0.20422289318980258 0.04881617263178262 0.20422289318980258 0.04881617263178262 0.20422289318980258 0.9511838273682174 -0.20422289318980258
1090891.386135458 0.9492685282131955 -0.20818910582633654 0.050731471786804504 0.20818910582633654 0.050731471786804504 0.20818910582633654 0.9492685282131955 -0.20818910582633654
1114876.832129545 0.9472807673485371 -0.21221592820842036 0.052719232651462895 0.21221592820842036 0.052719232651462895 0.21221592820842036 0.9472807673485371 -0.21221592820842036
1139389.6465003989 0.9452179849052417 -0.2163032412975273 0.054782015094758406 0.2163032412975273 0.054782015094758406 0.2163032412975273 0.9452179849052417 -0.2163032412975273
1164441.4245047802 0.9430775547491015 -0.2204508403375244 0.05692244525089852 0.2204508403375244 0.05692244525089852 0.2204508403375244 0.9430775547491015 -0.2204508403375244
1190044.0163445412 0.9408567856078515 -0.22465842911520123 0.05914321439214859 0.22465842911520123 0.05914321439214859 0.22465842911520123 0.9408567856078515 -0.22465842911520123
1216209.5327721077 0.9385529225193978 -0.22892561405613818 0.06144707748060224 0.22892561405613818 0.06144707748060224 0.22892561405613818 0.9385529225193978 -0.22892561405613818
1242950.3508192098 0.9361631486237637 -0.23325189816641687 0.06383685137623633 0.23325189816641687 0.06383685137623633 0.23325189816641687 0.9361631486237637 -0.23325189816641687
1270279.119651567 0.9336845873219515 -0.23763667483250903 0.06631541267804869 0.23763667483250903 0.06631541267804869 0.23763667483250903 0.9336845873219515 -0.23763667483250903
1298208.7665523042 0.9311143048254047 -0.24207922149368755 0.06888569517459532 0.24207922149368755 0.06888569517459532 0.24207922149368755 0.9311143048254047 -0.24207922149368755
1326752.5030369225 0.9284493131201428 -0.24657869320346687 0.07155068687985726 0.24657869320346687 0.07155068687985726 0.24657869320346687 0.9284493131201428 -0.24657869320346687
1355923.8311027219 0.9256865733698906 -0.25113411609892394 0.07431342663010941 0.25113411609892394 0.07431342663010941 0.25113411609892394 0.9256865733698906 -0.25113411609892394
1385736.5496156274 0.9228229997826458 -0.25574438079926676 0.07717700021735423 0.25574438079926676 0.07717700021735423 0.25574438079926676 0.9228229997826458 -0.25574438079926676
1416204.7608374464 0.9198554639650505 -0.26040823575770605 0.08014453603494952 0.26040823575770605 0.08014453603494952 0.26040823575770605 0.9198554639650505 -0.26040823575770605
1447342.877096637 0.916780799788666 -0.2651242805935509 0.08321920021133397 0.2651242805935509 0.08321920021133397 0.2651242805935509 0.916780799788666 -0.2651242805935509
1479165.6276057488 0.913595808791733 -0.2698909594344715 0.08640419120826705 0.2698909594344715 0.08640419120826705 0.2698909594344715 0.913595808791733 -0.2698909594344715
1511688.0654287587 0.9102972661392218 -0.27470655430205393 0.08970273386077832 0.27470655430205393 0.08970273386077832 0.27470655430205393 0.9102972661392218 -0.27470655430205393
1544925.574601597 0.9068819271628895 -0.27956917857708724 0.0931180728371105 0.27956917857708724 0.0931180728371105 0.27956917857708724 0.9068819271628895 -0.27956917857708724
1578893.8774092323 0.9033465345016375 -0.28447677058446347 0.09665346549836246 0.28447677058446347 0.09665346549836246 0.28447677058446347 0.9033465345016375 -0.28447677058446347
1613609.04182276 0.8996878258606641 -0.28942708734109635 0.10031217413933588 0.28942708734109635 0.10031217413933588 0.28942708734109635 0.8996878258606641 -0.28942708734109635
1649087.4891000076 0.8959025424057069 -0.29441769851386157 0.10409745759429309 0.29441769851386157 0.10409745759429309 0.29441769851386157 0.8959025424057069 -0.29441769851386157
1685346.001553255 0.8919874378060223 -0.2994459806381804 0.10801256219397774 0.2994459806381804 0.10801256219397774 0.2994459806381804 0.8919874378060223 -0.2994459806381804
1722401.7304877453 0.8879392879366341 -0.3045091116514721 0.11206071206336587 0.3045091116514721 0.11206071206336587 0.3045091116514721 0.8879392879366341 -0.3045091116514721
1760272.2043147392 0.8837549012467714 -0.30960406579924316 0.11624509875322867 0.30960406579924316 0.11624509875322867 0.30960406579924316 0.8837549012467714 -0.30960406579924316
1798975.3368429495 0.8794311297972687 -0.31472760897500257 0.12056887020273135 0.31472760897500257 0.12056887020273135 0.31472760897500257 0.8794311297972687 -0.31472760897500257
1838529.4357522824 0.8749648809650248 -0.31987629455842953 0.12503511903497522 0.31987629455842953 0.12503511903497522 0.31987629455842953 0.8749648809650248 -0.31987629455842953
1878953.211253888 0.8703531298073649 -0.3250464598192148 0.12964687019263507 0.3250464598192148 0.12964687019263507 0.3250464598192148 0.8703531298073649 -0.3250464598192148
1920265.784940624 0.8655929320733391 -0.33023422295666643 0.13440706792666096 0.33023422295666643 0.13440706792666096 0.33023422295666643 0.8655929320733391 -0.33023422295666643
1962486.6988321077 0.8606814378426174 -0.33543548084743036 0.13931856215738272 0.33543548084743036 0.13931856215738272 0.33543548084743036 0.8606814378426174 -0.33543548084743036
2005635.9246186486 0.8556159057656976 -0.3406459075754663 0.14438409423430235 0.3406459075754663 0.14438409423430235 0.3406459075754663 0.8556159057656976 -0.3406459075754663
2049733.8731084245 0.850393717871679 -0.3458609538196164 0.14960628212832117 0.3458609538196164 0.14960628212832117 0.3458609538196164 0.850393717871679 -0.3458609538196164
2094801.403882371 0.8450123949018729 -0.35107584717464463 0.1549876050981271 0.35107584717464463 0.1549876050981271 0.35107584717464463 0.8450123949018729 -0.35107584717464463
2140859.835161357 0.8394696121191005 -0.35628559348141026 0.16053038788089943 0.35628559348141026 0.16053038788089943 0.35628559348141026 0.8394696121191005 -0.35628559348141026
2187930.9538903087 0.8337632155336848 -0.36148497924075756 0.16623678446631532 0.36148497924075756 0.16623678446631532 0.36148497924075756 0.8337632155336848 -0.36148497924075756
2236037.02604405 0.8278912384780025 -0.36666857518370055 0.17210876152199758 0.36666857518370055 0.17210876152199758 0.36666857518370055 0.8278912384780025 -0.36666857518370055
2285200.8071597433 0.8218519184520727 -0.37183074106743214 0.17814808154792744 0.37183074106743214 0.17814808154792744 0.37183074106743214 0.8218519184520727 -0.37183074106743214
2335445.553100901 0.8156437141531462 -0.37696563176253955 0.18435628584685385 0.37696563176253955 0.18435628584685385 0.37696563176253955 0.8156437141531462 -0.37696563176253955
2386795.031058074 0.8092653225927443 -0.38206720469148114 0.19073467740725566 0.38206720469148114 0.19073467740725566 0.38206720469148114 0.8092653225927443 -0.38206720469148114
2439273.530791401 0.8027156961952192 -0.38712922867180594 0.19728430380478065 0.38712922867180594 0.19728430380478065 0.38712922867180594 0.8027156961952192 -0.38712922867180594
2492905.876120359 0.7959940597628061 -0.39214529420976096 0.2040059402371938 0.39214529420976096 0.2040059402371938 0.39214529420976096 0.7959940597628061 -0.39214529420976096
2547717.4366661333 0.7890999271835043 -0.39710882528076336 0.21090007281649564 0.39710882528076336 0.21090007281649564 0.39710882528076336 0.7890999271835043 -0.39710882528076336
2603734.139852166 0.7820331177501108 -0.40201309262276047 0.21796688224988933 0.40201309262276047 0.21796688224988933 0.40201309262276047 0.7820331177501108 -0.40201309262276047
2660982.4831685643 0.7747937719515419 -0.40685122855673234 0.22520622804845816 0.40685122855673234 0.22520622804845816 0.40685122855673234 0.7747937719515419 -0.40685122855673234
2719489.5467061675 0.7673823665914058 -0.41161624333558683 0.23261763340859412 0.41161624333558683 0.23261763340859412 0.41161624333558683 0.7673823665914058 -0.41161624333558683
2779283.0059661944 0.7597997290838189 -0.41630104300851484 0.24020027091618112 0.41630104300851484 0.24020027091618112 0.41630104300851484 0.7597997290838189 -0.41630104300851484
2840391.144951544 0.7520470507729006 -0.42089844877261506 0.2479529492270995 0.42089844877261506 0.2479529492270995 0.42089844877261506 0.7520470507729006 -0.42089844877261506
2902842.8695459287 0.7441258991204208 -0.42540121776741086 0.2558741008795791 0.42540121776741086 0.2558741008795791 0.42540121776741086 0.7441258991204208 -0.42540121776741086
2966667.72118718 0.7360382286058746 -0.4298020652509193 0.2639617713941254 0.4298020652509193 0.2639617713941254 0.4298020652509193 0.7360382286058746 -0.4298020652509193
3031895.8908411846 0.727786390185008 -0.4340936880783997 0.2722136098149919 0.4340936880783997 0.2722136098149919 0.4340936880783997 0.727786390185008 -0.4340936880783997
3098558.233283071 0.7193731391566357 -0.43826878938704456 0.2806268608433644 0.43826878938704456 0.2806268608433644 0.43826878938704456 0.7193731391566357 -0.43826878938704456
3166686.281692389 0.710801641293592 -0.44232010437190716 0.2891983587064078 0.44232010437190716 0.2891983587064078 0.44232010437190716 0.710801641293592 -0.44232010437190716
3236312.2625692035 0.7020754771019349 -0.4462404270206193 0.2979245228980652 0.4462404270206193 0.2979245228980652 0.4462404270206193 0.7020754771019349 -0.4462404270206193
3307469.1109781396 0.693198644083089 -0.45002263765717887 0.30680135591691116 0.45002263765717887 0.30680135591691116 0.45002263765717887 0.693198644083089 -0.45002263765717887
3380190.486127605 0.6841755568865044 -0.4536597311286663 0.31582444311349556 0.4536597311286663 0.31582444311349556 0.4536597311286663 0.6841755568865044 -0.4536597311286663
3454510.787291549 0.6750110452555402 -0.4571448454534455 0.3249889547444598 0.4571448454534455 0.3249889547444598 0.4571448454534455 0.6750110452555402 -0.4571448454534455
3530465.1700812983 0.6657103496865688 -0.4604712907356012 0.3342896503134312 0.4604712907356012 0.3342896503134312 0.4604712907356012 0.6657103496865688 -0.4604712907356012
3608089.563075153 0.6562791147406196 -0.4636325781383332 0.34372088525938044 0.4636325781383332 0.34372088525938044 0.4636325781383332 0.6562791147406196 -0.4636325781383332
3687420.6848136308 0.6467233799679603 -0.4666224486991288 0.3532766200320397 0.4666224486991288 0.3532766200320397 0.4666224486991288 0.6467233799679603 -0.4666224486991288
3768496.0611683712 0.6370495684287173 -0.4694349017619956 0.36295043157128265 0.4694349017619956 0.36295043157128265 0.4694349017619956 0.6370495684287173 -0.4694349017619956
3851354.0430929437 0.6272644728165321 -0.4720642227971615 0.37273552718346803 0.4720642227971615 0.37273552718346803 0.4720642227971615 0.6272644728165321 -0.4720642227971615
3936033.8247639337 0.6173752392171202 -0.47450501037660986 0.3826247607828797 0.47450501037660986 0.3826247607828797 0.47450501037660986 0.6173752392171202 -0.47450501037660986
4022575.4621209023 0.6073893485589836 -0.4767522020748017 0.39261065144101637 0.4767522020748017 0.39261065144101637 0.4767522020748017 0.6073893485589836 -0.4767522020748017
4111019.891813979 0.5973145958390484 -0.4788010990680388 0.40268540416095167 0.4788010990680388 0.40268540416095167 0.4788010990680388 0.5973145958390484 -0.4788010990680388
4201408.950568062 0.5871590672312385 -0.4806473892131993 0.41284093276876166 0.4806473892131993 0.41284093276876166 0.4806473892131993 0.5871590672312385 -0.4806473892131993
4293785.394972777 0.5769311152105029 -0.482287168397002 0.42306888478949717 0.482287168397002 0.42306888478949717 0.482287168397002 0.5769311152105029 -0.482287168397002
4388192.921707552 0.566639331848146 -0.48371695996045594 0.4333606681518541 0.48371695996045594 0.4333606681518541 0.48371695996045594 0.566639331848146 -0.48371695996045594
4484676.188211391 0.5562925204560571 -0.4849337320195691 0.44370747954394296 0.4849337320195691 0.44370747954394296 0.4849337320195691 0.5562925204560571 -0.4849337320195691
4583280.833807113 0.5458996657771756 -0.4859349125225077 0.4541003342228245 0.4859349125225077 0.4541003342228245 0.4859349125225077 0.5458996657771756 -0.4859349125225077
4684053.501290036 0.5354699029369056 -0.4867184019049474 0.4645300970630944 0.4867184019049474 0.4645300970630944 0.4867184019049474 0.5354699029369056 -0.4867184019049474
4787041.858991356 0.5250124853848592 -0.48728258322899076 0.47498751461514066 0.48728258322899076 0.47498751461514066 0.48728258322899076 0.5250124853848592 -0.48728258322899076
4892294.623326608 0.5145367520680155 -0.4876263297163757 0.48546324793198453 0.4876263297163757 0.48546324793198453 0.4876263297163757 0.5145367520680155 -0.4876263297163757
4999861.581839919 0.5040520940848829 -0.4877490096133314 0.4959479059151171 0.4877490096133314 0.4959479059151171 0.4877490096133314 0.5040520940848829 -0.4877490096133314
5109793.616754934 0.49356792107543046 -0.4876504883519188 0.5064320789245694 0.4876504883519188 0.5064320789245694 0.4876504883519188 0.49356792107543046 -0.4876504883519188
5222142.729043541 0.48309362760330127 -0.4873311280005288 0.5169063723966988 0.4873311280005288 0.5169063723966988 0.4873311280005288 0.48309362760330127 -0.4873311280005288
5336962.063023812 0.47263855978515024 -0.48679178402396345 0.5273614402148499 0.48679178402396345 0.5273614402148499 0.48679178402396345 0.47263855978515024 -0.48679178402396345
5454305.931498774 0.4622119824169169 -0.48603379940069863 0.5377880175830831 0.48603379940069863 0.5377880175830831 0.48603379940069863 0.4622119824169169 -0.48603379940069863
5574229.841447907 0.45182304683858626 -0.4850589961710854 0.5481769531614137 0.4850589961710854 0.5481769531614137 0.4850589961710854 0.45182304683858626 -0.4850589961710854
5696790.520283512 0.4414807597677072 -0.48386966451498065 0.5585192402322927 0.48386966451498065 0.5585192402322927 0.48386966451498065 0.4414807597677072 -0.48386966451498065
5822045.942684401 0.4311939533178734 -0.482468549480207 0.5688060466821268 0.482468549480207 0.5688060466821268 0.482468549480207 0.4311939533178734 -0.482468549480207
5950055.3580195485 0.4209712564018679 -0.4808588355040196 0.5790287435981322 0.4808588355040196 0.5790287435981322 0.4808588355040196 0.4209712564018679 -0.4808588355040196
6080879.31837474 0.4108210677005163 -0.47904412888810816 0.5891789322994838 0.47904412888810816 0.5891789322994838 0.47904412888810816 0.4108210677005163 -0.47904412888810816
6214579.707195417 0.4007515303579352 -0.4770284384033776 0.5992484696420647 0.4770284384033776 0.5992484696420647 0.4770284384033776 0.4007515303579352 -0.4770284384033776
6351219.768559305 0.39077050854213613 -0.4748161542136812 0.6092294914578639 0.4748161542136812 0.6092294914578639 0.4748161542136812 0.39077050854213613 -0.4748161542136812
6490864.137092655 0.3808855659872986 -0.47241202531771803 0.6191144340127014 0.47241202531771803 0.6191144340127014 0.47241202531771803 0.3808855659872986 -0.47241202531771803
6633578.86854426 0.3711039466108556 -0.46982113571544715 0.6288960533891443 0.46982113571544715 0.6288960533891443 0.46982113571544715 0.3711039466108556 -0.46982113571544715
6779431.471031698 0.361432557275209 -0.4670488795096194 0.638567442724791 0.4670488795096194 0.638567442724791 0.4670488795096194 0.361432557275209 -0.4670488795096194
6928490.936974583 0.35187795274083994 -0.4641009351544924 0.6481220472591599 0.4641009351544924 0.6481220472591599 0.4641009351544924 0.35187795274083994 -0.4641009351544924
7080827.77572994 0.342446322835083 -0.4609832390625971 0.657553677164917 0.4609832390625971 0.657553677164917 0.4609832390625971 0.342446322835083 -0.4609832390625971
7236514.046945133 0.3331434818392502 -0.45770195877674313 0.6668565181607499 0.45770195877674313 0.6668565181607499 0.45770195877674313 0.3331434818392502 -0.45770195877674313
7395623.394644118 0.3239748600763847 -0.4542634659085162 0.6760251399236153 0.4542634659085162 0.6760251399236153 0.4542634659085162 0.3239748600763847 -0.4542634659085162
7558231.082063163 0.3149454976628965 -0.45067430903654193 0.6850545023371035 0.45067430903654193 0.6850545023371035 0.45067430903654193 0.3149454976628965 -0.45067430903654193
7724414.027252486 0.3060600403699214 -0.44694118674806516 0.6939399596300785 0.44694118674806516 0.6939399596300785 0.44694118674806516 0.3060600403699214 -0.44694118674806516
7894250.839460687 0.29732273752453453 -0.44307092099616235 0.7026772624754655 0.44307092099616235 0.7026772624754655 0.44307092099616235 0.29732273752453453 -0.44307092099616235
8067821.8563191425 0.28873744186708367 -0.4390704309324621 0.7112625581329165 0.4390704309324621 0.7112625581329165 0.4390704309324621 0.28873744186708367 -0.4390704309324621
8245209.181843984 0.2803076112689086 -0.4349467073618612 0.7196923887310914 0.4349467073618612 0.7196923887310914 0.4349467073618612 0.2803076112689086 -0.4349467073618612
8426496.72527364 0.27203631220462204 -0.43070678795165773 0.727963687795378 0.43070678795165773 0.727963687795378 0.43070678795165773 0.27203631220462204 -0.43070678795165773
8611770.240760274 0.26392622486490375 -0.42635773331303056 0.7360737751350962 0.42635773331303056 0.7360737751350962 0.42635773331303056 0.26392622486490375 -0.42635773331303056
8801117.367933933 0.25597964978937865 -0.42190660405811437 0.7440203502106214 0.42190660405811437 0.7440203502106214 0.42190660405811437 0.25597964978937865 -0.42190660405811437
8994627.673358591 0.2481985158945053 -0.4173604389212542 0.7518014841054945 0.4173604389212542 0.7518014841054945 0.4173604389212542 0.2481985158945053 -0.4173604389212542
9192392.692899661 0.24058438976843308 -0.4127262340185848 0.759415610231567 0.4127262340185848 0.759415610231567 0.4127262340185848 0.24058438976843308 -0.4127262340185848
9394505.975023063 0.23313848610334287 -0.408010923306007 0.766861513896657 0.408010923306007 0.766861513896657 0.408010923306007 0.23313848610334287 -0.408010923306007
9601063.125046303 0.22586167913577138 -0.4032213602821023 0.7741383208642286 0.4032213602821023 0.7741383208642286 0.4032213602821023 0.22586167913577138 -0.4032213602821023
9812161.850362506 0.21875451496668305 -0.39836430096962544 0.781245485033317 0.39836430096962544 0.781245485033317 0.39836430096962544 0.21875451496668305 -0.39836430096962544
10027902.006658768 0.2118172246354535 -0.39344638819705846 0.7881827753645463 0.39344638819705846 0.7881827753645463 0.39344638819705846 0.2118172246354535 -0.39344638819705846
10248385.645150753 0.205049737825344 -0.38847413719037066 0.794950262174656 0.38847413719037066 0.794950262174656 0.38847413719037066 0.205049737825344 -0.38847413719037066
10473717.060855797 0.19845169708230462 -0.3834539224746387 0.8015483029176954 0.3834539224746387 0.8015483029176954 0.3834539224746387 0.19845169708230462 -0.3834539224746387
10704002.841927417 0.19202247243395734 -0.3783919660756167 0.8079775275660428 0.3783919660756167 0.8079775275660428 0.3783919660756167 0.19202247243395734 -0.3783919660756167
10939351.920074524 0.1857611763011905 -0.37329432700266935 0.8142388236988096 0.37329432700266935 0.8142388236988096 0.37329432700266935 0.1857611763011905 -0.37329432700266935
