!Murata Part Number: GRM022R71A181KA01
!These Parameters are Measured in Series Mode Connection
!       o--ll--o
!Port1            Port2
!       o------o
!Operation Temp=25[C], DC Bias Voltage=0[V]
!Freq. Start=1[MHz] Stop=6[GHz], 401[Steps]
# Hz S RI R 50
!Freq.(Hz)	S 11(Real)	S 11(Imag)	S 21(Real)	S 21(Imag)	S 12(Real)	S 12(Imag)	S 22(Real)	S 22(Imag)	
1000000 0.985058553043535 -0.10788547256168926 0.014941446956465057 0.10788547256168926 0.014941446956465057 0.10788547256168926 0.985058553043535 -0.10788547256168926
1021987.0156634536 0.9844883621035484 -0.11012615604217361 0.015511637896451755 0.11012615604217361 0.015511637896451755 0.11012615604217361 0.9844883621035484 -0.11012615604217361
1044457.4601846923 0.9838966051863818 -0.11241120160824267 0.016103394813618083 0.11241120160824267 0.016103394813618083 0.11241120160824267 0.9838966051863818 -0.11241120160824267
1067421.9627215841 0.9832824081851325 -0.11474138495432885 0.01671759181486758 0.11474138495432885 0.01671759181486758 0.11474138495432885 0.9832824081851325 -0.11474138495432885
1090891.386135458 0.9826448588565924 -0.11711748457471234 0.017355141143407676 0.11711748457471234 0.017355141143407676 0.11711748457471234 0.9826448588565924 -0.11711748457471234
1114876.832129545 0.9819830054784905 -0.11954028063746307 0.018016994521509434 0.11954028063746307 0.018016994521509434 0.11954028063746307 0.9819830054784905 -0.11954028063746307
1139389.6465003989 0.9812958555023009 -0.12201055377307625 0.018704144497699155 0.12201055377307625 0.018704144497699155 0.12201055377307625 0.9812958555023009 -0.12201055377307625
1164441.4245047802 0.9805823742040758 -0.124529083775172 0.019417625795924185 0.124529083775172 0.019417625795924185 0.124529083775172 0.9805823742040758 -0.124529083775172
1190044.0163445412 0.979841483335864 -0.12709664821052133 0.020158516664135893 0.12709664821052133 0.020158516664135893 0.12709664821052133 0.979841483335864 -0.12709664821052133
1216209.5327721077 0.9790720597803908 -0.1297140209355354 0.02092794021960939 0.1297140209355354 0.02092794021960939 0.1297140209355354 0.9790720597803908 -0.1297140209355354
1242950.3508192098 0.9782729342118314 -0.1323819705162188 0.021727065788168704 0.1323819705162188 0.021727065788168704 0.1323819705162188 0.9782729342118314 -0.1323819705162188
1270279.119651567 0.9774428897656979 -0.13510125854843533 0.022557110234302187 0.13510125854843533 0.022557110234302187 0.13510125854843533 0.9774428897656979 -0.13510125854843533
1298208.7665523042 0.9765806607210642 -0.13787263787518284 0.023419339278935854 0.13787263787518284 0.023419339278935854 0.13787263787518284 0.9765806607210642 -0.13787263787518284
1326752.5030369225 0.9756849311986258 -0.14069685069740961 0.024315068801374237 0.14069685069740961 0.024315068801374237 0.14069685069740961 0.9756849311986258 -0.14069685069740961
1355923.8311027219 0.9747543338783784 -0.14357462657474857 0.025245666121621622 0.14357462657474857 0.025245666121621622 0.14357462657474857 0.9747543338783784 -0.14357462657474857
1385736.5496156274 0.9737874487410451 -0.146506680312392 0.026212551258954914 0.146506680312392 0.026212551258954914 0.146506680312392 0.9737874487410451 -0.146506680312392
1416204.7608374464 0.9727828018377668 -0.1494937097301882 0.027217198162233253 0.1494937097301882 0.027217198162233253 0.1494937097301882 0.9727828018377668 -0.1494937097301882
1447342.877096637 0.9717388640930037 -0.1525363933099135 0.028261135906996252 0.1525363933099135 0.028261135906996252 0.1525363933099135 0.9717388640930037 -0.1525363933099135
1479165.6276057488 0.9706540501460765 -0.1556353877165742 0.02934594985392345 0.1556353877165742 0.02934594985392345 0.1556353877165742 0.9706540501460765 -0.1556353877165742
1511688.0654287587 0.969526717237302 -0.15879132518951167 0.03047328276269786 0.15879132518951167 0.03047328276269786 0.15879132518951167 0.969526717237302 -0.15879132518951167
1544925.574601597 0.9683551641452572 -0.16200481079904785 0.031644835854742856 0.16200481079904785 0.031644835854742856 0.16200481079904785 0.9683551641452572 -0.16200481079904785
1578893.8774092323 0.9671376301823228 -0.1652764195644029 0.03286236981767713 0.1652764195644029 0.03286236981767713 0.1652764195644029 0.9671376301823228 -0.1652764195644029
1613609.04182276 0.9658722942563345 -0.16860669342866544 0.03412770574366554 0.16860669342866544 0.03412770574366554 0.16860669342866544 0.9658722942563345 -0.16860669342866544
1649087.4891000076 0.9645572740068697 -0.17199613808669195 0.035442725993130315 0.17199613808669195 0.035442725993130315 0.17199613808669195 0.9645572740068697 -0.17199613808669195
1685346.001553255 0.9631906250254667 -0.1754452196619713 0.03680937497453338 0.1754452196619713 0.03680937497453338 0.1754452196619713 0.9631906250254667 -0.1754452196619713
1722401.7304877453 0.9617703401698517 -0.17895436122871614 0.038229659830148206 0.17895436122871614 0.038229659830148206 0.17895436122871614 0.9617703401698517 -0.17895436122871614
1760272.2043147392 0.9602943489830902 -0.18252393917573798 0.03970565101690996 0.18252393917573798 0.03970565101690996 0.18252393917573798 0.9602943489830902 -0.18252393917573798
1798975.3368429495 0.9587605172294256 -0.1861542794090419 0.041239482770574584 0.1861542794090419 0.041239482770574584 0.1861542794090419 0.9587605172294256 -0.1861542794090419
1838529.4357522824 0.9571666465594694 -0.18984565339054194 0.042833353440530804 0.18984565339054194 0.042833353440530804 0.18984565339054194 0.9571666465594694 -0.18984565339054194
1878953.211253888 0.9555104743182983 -0.19359827401085264 0.044489525681701766 0.19359827401085264 0.044489525681701766 0.19359827401085264 0.9555104743182983 -0.19359827401085264
1920265.784940624 0.9537896735109483 -0.1974122912947724 0.04621032648905172 0.1974122912947724 0.04621032648905172 0.1974122912947724 0.9537896735109483 -0.1974122912947724
1962486.6988321077 0.952001852940717 -0.2012877879388364 0.04799814705928306 0.2012877879388364 0.04799814705928306 0.2012877879388364 0.952001852940717 -0.2012877879388364
2005635.9246186486 0.9501445575366197 -0.20522477468119596 0.04985544246338022 0.20522477468119596 0.04985544246338022 0.20522477468119596 0.9501445575366197 -0.20522477468119596
2049733.8731084245 0.9482152688872645 -0.20922318550507582 0.05178473111273553 0.20922318550507582 0.05178473111273553 0.20922318550507582 0.9482152688872645 -0.20922318550507582
2094801.403882371 0.9462114059993085 -0.21328287267818463 0.05378859400069154 0.21328287267818463 0.05378859400069154 0.21328287267818463 0.9462114059993085 -0.21328287267818463
2140859.835161357 0.9441303262995385 -0.2174036016317065 0.055869673700461496 0.2174036016317065 0.055869673700461496 0.2174036016317065 0.9441303262995385 -0.2174036016317065
2187930.9538903087 0.9419693269004401 -0.22158504568389153 0.058030673099559935 0.22158504568389153 0.058030673099559935 0.22158504568389153 0.9419693269004401 -0.22158504568389153
2236037.02604405 0.9397256461499006 -0.22582678061479358 0.060274353850099396 0.22582678061479358 0.060274353850099396 0.22582678061479358 0.9397256461499006 -0.22582678061479358
2285200.8071597433 0.9373964654863964 -0.23012827910037906 0.06260353451360354 0.23012827910037906 0.06260353451360354 0.23012827910037906 0.9373964654863964 -0.23012827910037906
2335445.553100901 0.9349789116216355 -0.23448890501605366 0.06502108837836448 0.23448890501605366 0.06502108837836448 0.23448890501605366 0.9349789116216355 -0.23448890501605366
2386795.031058074 0.932470059073147 -0.23890790762162648 0.06752994092685322 0.23890790762162648 0.06752994092685322 0.23890790762162648 0.932470059073147 -0.23890790762162648
2439273.530791401 0.9298669330697092 -0.24338441564185334 0.07013306693029078 0.24338441564185334 0.07013306693029078 0.24338441564185334 0.9298669330697092 -0.24338441564185334
2492905.876120359 0.9271665128527732 -0.247917431258973 0.0728334871472268 0.247917431258973 0.0728334871472268 0.247917431258973 0.9271665128527732 -0.247917431258973
2547717.4366661333 0.9243657353971294 -0.2525058240360681 0.07563426460287069 0.2525058240360681 0.07563426460287069 0.2525058240360681 0.9243657353971294 -0.2525058240360681
2603734.139852166 0.9214614995740015 -0.25714832479264066 0.07853850042599848 0.25714832479264066 0.07853850042599848 0.25714832479264066 0.9214614995740015 -0.25714832479264066
2660982.4831685643 0.918450670779456 -0.26184351945649015 0.08154932922054392 0.26184351945649015 0.08154932922054392 0.26184351945649015 0.918450670779456 -0.26184351945649015
2719489.5467061675 0.9153300860505107 -0.2665898429187965 0.08466991394948932 0.2665898429187965 0.08466991394948932 0.2665898429187965 0.9153300860505107 -0.2665898429187965
2779283.0059661944 0.9120965596905641 -0.2713855729222464 0.08790344030943595 0.2713855729222464 0.08790344030943595 0.2713855729222464 0.9120965596905641 -0.2713855729222464
2840391.144951544 0.9087468894247319 -0.2762288240150714 0.09125311057526798 0.2762288240150714 0.09125311057526798 0.2762288240150714 0.9087468894247319 -0.2762288240150714
2902842.8695459287 0.9052778631043357 -0.281117541606974 0.09472213689566435 0.281117541606974 0.09472213689566435 0.281117541606974 0.9052778631043357 -0.281117541606974
2966667.72118718 0.9016862659781284 -0.28604949616608544 0.0983137340218716 0.28604949616608544 0.0983137340218716 0.28604949616608544 0.9016862659781284 -0.28604949616608544
3031895.8908411846 0.8979688885458356 -0.29102227759929794 0.10203111145416449 0.29102227759929794 0.10203111145416449 0.29102227759929794 0.8979688885458356 -0.29102227759929794
3098558.233283071 0.8941225350071994 -0.2960332898615111 0.1058774649928007 0.2960332898615111 0.1058774649928007 0.2960332898615111 0.8941225350071994 -0.2960332898615111
3166686.281692389 0.8901440323169485 -0.30107974584250036 0.10985596768305156 0.30107974584250036 0.10985596768305156 0.30107974584250036 0.8901440323169485 -0.30107974584250036
3236312.2625692035 0.8860302398529236 -0.30615866258321195 0.1139697601470764 0.30615866258321195 0.1139697601470764 0.30615866258321195 0.8860302398529236 -0.30615866258321195
3307469.1109781396 0.8817780597009766 -0.3112668568762725 0.11822194029902355 0.3112668568762725 0.11822194029902355 0.3112668568762725 0.8817780597009766 -0.3112668568762725
3380190.486127605 0.8773844475562065 -0.3164009413083213 0.12261555244379373 0.3164009413083213 0.12261555244379373 0.3164009413083213 0.8773844475562065 -0.3164009413083213
3454510.787291549 0.8728464242355883 -0.32155732080439325 0.12715357576441164 0.32155732080439325 0.12715357576441164 0.32155732080439325 0.8728464242355883 -0.32155732080439325
3530465.1700812983 0.8681610877920913 -0.3267321897369215 0.13183891220790855 0.3267321897369215 0.13183891220790855 0.3267321897369215 0.8681610877920913 -0.3267321897369215
3608089.563075153 0.8633256262149648 -0.3319215296639573 0.13667437378503516 0.3319215296639573 0.13667437378503516 0.3319215296639573 0.8633256262149648 -0.3319215296639573
3687420.6848136308 0.8583373306950152 -0.3371211077628435 0.1416626693049849 0.3371211077628435 0.1416626693049849 0.3371211077628435 0.8583373306950152 -0.3371211077628435
3768496.0611683712 0.853193609427401 -0.34232647602676286 0.14680639057259898 0.34232647602676286 0.14680639057259898 0.34232647602676286 0.853193609427401 -0.34232647602676286
3851354.0430929437 0.8478920019177715 -0.3475329712922617 0.15210799808222844 0.3475329712922617 0.15210799808222844 0.3475329712922617 0.8478920019177715 -0.3475329712922617
3936033.8247639337 0.8424301937504934 -0.35273571616592686 0.15756980624950645 0.35273571616592686 0.15756980624950645 0.35273571616592686 0.8424301937504934 -0.35273571616592686
4022575.4621209023 0.8368060317702903 -0.35792962091783936 0.16319396822970966 0.35792962091783936 0.16319396822970966 0.35792962091783936 0.8368060317702903 -0.35792962091783936
4111019.891813979 0.8310175396209103 -0.3631093864081318 0.1689824603790898 0.3631093864081318 0.1689824603790898 0.3631093864081318 0.8310175396209103 -0.3631093864081318
4201408.950568062 0.8250629335764991 -0.3682695081109078 0.17493706642350093 0.3682695081109078 0.17493706642350093 0.3682695081109078 0.8250629335764991 -0.3682695081109078
4293785.394972777 0.8189406385932577 -0.373404281296856 0.18105936140674223 0.373404281296856 0.18105936140674223 0.373404281296856 0.8189406385932577 -0.373404281296856
4388192.921707552 0.8126493045007918 -0.37850780743205853 0.1873506954992082 0.37850780743205853 0.1873506954992082 0.37850780743205853 0.8126493045007918 -0.37850780743205853
4484676.188211391 0.8061878222443989 -0.383574001845703 0.19381217775560114 0.383574001845703 0.19381217775560114 0.383574001845703 0.8061878222443989 -0.383574001845703
4583280.833807113 0.7995553400815069 -0.3885966027136094 0.20044465991849314 0.3885966027136094 0.20044465991849314 0.3885966027136094 0.7995553400815069 -0.3885966027136094
4684053.501290036 0.7927512796276692 -0.39356918139764707 0.2072487203723308 0.39356918139764707 0.2072487203723308 0.39356918139764707 0.7927512796276692 -0.39356918139764707
4787041.858991356 0.7857753516400712 -0.3984851541732284 0.21422464835992883 0.3984851541732284 0.21422464835992883 0.3984851541732284 0.7857753516400712 -0.3984851541732284
4892294.623326608 0.7786275714195566 -0.40333779536809244 0.22137242858044343 0.40333779536809244 0.22137242858044343 0.40333779536809244 0.7786275714195566 -0.40333779536809244
4999861.581839919 0.7713082737058453 -0.40812025192557255 0.22869172629415466 0.40812025192557255 0.22869172629415466 0.40812025192557255 0.7713082737058453 -0.40812025192557255
5109793.616754934 0.7638181269350748 -0.4128255593944738 0.23618187306492525 0.4128255593944738 0.23618187306492525 0.4128255593944738 0.7638181269350748 -0.4128255593944738
5222142.729043541 0.7561581467241729 -0.41744665933562475 0.24384185327582714 0.41744665933562475 0.24384185327582714 0.41744665933562475 0.7561581467241729 -0.41744665933562475
5336962.063023812 0.7483297084430343 -0.42197641812217906 0.25167029155696585 0.42197641812217906 0.25167029155696585 0.42197641812217906 0.7483297084430343 -0.42197641812217906
5454305.931498774 0.7403345587331629 -0.4264076470969038 0.25966544126683705 0.4264076470969038 0.25966544126683705 0.4264076470969038 0.7403345587331629 -0.4264076470969038
5574229.841447907 0.7321748258305232 -0.4307331240351193 0.26782517416947665 0.4307331240351193 0.26782517416947665 0.4307331240351193 0.7321748258305232 -0.4307331240351193
5696790.520283512 0.7238530285509309 -0.4349456158467766 0.27614697144906913 0.4349456158467766 0.27614697144906913 0.4349456158467766 0.7238530285509309 -0.4349456158467766
5822045.942684401 0.7153720837985652 -0.43903790243553703 0.2846279162014348 0.43903790243553703 0.2846279162014348 0.43903790243553703 0.7153720837985652 -0.43903790243553703
5950055.3580195485 0.706735312462195 -0.4430028016168259 0.293264687537805 0.4430028016168259 0.293264687537805 0.4430028016168259 0.706735312462195 -0.4430028016168259
6080879.31837474 0.6979464435695796 -0.4468331949808752 0.3020535564304205 0.4468331949808752 0.3020535564304205 0.4468331949808752 0.6979464435695796 -0.4468331949808752
6214579.707195417 0.6890096165783146 -0.4505220545709766 0.31099038342168533 0.4505220545709766 0.31099038342168533 0.4505220545709766 0.6890096165783146 -0.4505220545709766
6351219.768559305 0.6799293816911841 -0.4540624702317637 0.32007061830881584 0.4540624702317637 0.32007061830881584 0.4540624702317637 0.6799293816911841 -0.4540624702317637
6490864.137092655 0.6707106980958528 -0.45744767746760934 0.3292893019041472 0.45744767746760934 0.3292893019041472 0.45744767746760934 0.6707106980958528 -0.45744767746760934
6633578.86854426 0.6613589300425001 -0.46067108563740494 0.3386410699575 0.46067108563740494 0.3386410699575 0.46067108563740494 0.6613589300425001 -0.46067108563740494
6779431.471031698 0.6518798406886742 -0.46372630629938144 0.3481201593113258 0.46372630629938144 0.3481201593113258 0.46372630629938144 0.6518798406886742 -0.46372630629938144
6928490.936974583 0.6422795836581424 -0.46660718150849395 0.3577204163418576 0.46660718150849395 0.3577204163418576 0.46660718150849395 0.6422795836581424 -0.46660718150849395
7080827.77572994 0.6325646922797066 -0.4693078118595063 0.36743530772029337 0.4693078118595063 0.36743530772029337 0.4693078118595063 0.6325646922797066 -0.4693078118595063
7236514.046945133 0.6227420664926343 -0.4718225840615407 0.3772579335073657 0.4718225840615407 0.3772579335073657 0.4718225840615407 0.6227420664926343 -0.4718225840615407
7395623.394644118 0.6128189574273397 -0.47414619782472756 0.3871810425726603 0.47414619782472756 0.3871810425726603 0.47414619782472756 0.6128189574273397 -0.47414619782472756
7558231.082063163 0.6028029496929296 -0.4762736918369393 0.3971970503070704 0.4762736918369393 0.3971970503070704 0.4762736918369393 0.6028029496929296 -0.4762736918369393
7724414.027252486 0.5927019414269425 -0.4782004686085884 0.40729805857305756 0.4782004686085884 0.40729805857305756 0.4782004686085884 0.5927019414269425 -0.4782004686085884
7894250.839460687 0.582524122186706 -0.4799223179662629 0.4174758778132941 0.4799223179662629 0.4174758778132941 0.4799223179662629 0.582524122186706 -0.4799223179662629
8067821.8563191425 0.5722779487858455 -0.48143543898166974 0.4277220512141546 0.48143543898166974 0.4277220512141546 0.48143543898166974 0.5722779487858455 -0.48143543898166974
8245209.181843984 0.5619721192032441 -0.48273646013098837 0.4380278807967559 0.48273646013098837 0.4380278807967559 0.48273646013098837 0.5619721192032441 -0.48273646013098837
8426496.72527364 0.5516155447147382 -0.4838224574913258 0.44838445528526194 0.4838224574913258 0.44838445528526194 0.4838224574913258 0.5516155447147382 -0.4838224574913258
8611770.240760274 0.5412173204196886 -0.48469097079540296 0.45878267958031155 0.48469097079540296 0.45878267958031155 0.48469097079540296 0.5412173204196886 -0.48469097079540296
8801117.367933933 0.530786694354836 -0.4853400171828196 0.46921330564516395 0.4853400171828196 0.46921330564516395 0.4853400171828196 0.530786694354836 -0.4853400171828196
8994627.673358591 0.5203330354062047 -0.48576810250599617 0.4796669645937953 0.48576810250599617 0.4796669645937953 0.48576810250599617 0.5203330354062047 -0.48576810250599617
9192392.692899661 0.5098658002458677 -0.4859742300709848 0.49013419975413247 0.4859742300709848 0.49013419975413247 0.4859742300709848 0.5098658002458677 -0.4859742300709848
9394505.975023063 0.4993944995338114 -0.48595790671744005 0.5006055004661887 0.48595790671744005 0.5006055004661887 0.48595790671744005 0.4993944995338114 -0.48595790671744005
9601063.125046303 0.48892866363566956 -0.48571914616782397 0.5110713363643302 0.48571914616782397 0.5110713363643302 0.48571914616782397 0.48892866363566956 -0.48571914616782397
9812161.850362506 0.47847780811450313 -0.48525846960296826 0.5215221918854971 0.48525846960296826 0.5215221918854971 0.48525846960296826 0.47847780811450313 -0.48525846960296826
10027902.006658768 0.4680513992588867 -0.4845769034490401 0.5319486007411133 0.4845769034490401 0.5319486007411133 0.4845769034490401 0.4680513992588867 -0.4845769034490401
10248385.645150753 0.45765881991027957 -0.48367597438927373 0.5423411800897203 0.48367597438927373 0.5423411800897203 0.48367597438927373 0.45765881991027957 -0.48367597438927373
10473717.060855797 0.44730933584988597 -0.48255770164209316 0.5526906641501139 0.48255770164209316 0.5526906641501139 0.48255770164209316 0.44730933584988597 -0.48255770164209316
10704002.841927417 0.43701206299906686 -0.4812245865749939 0.5629879370009333 0.4812245865749939 0.5629879370009333 0.4812245865749939 0.43701206299906686 -0.4812245865749939
