!Murata Part Number: GRM022B31A102KE19
!These Parameters are Measured in Series Mode Connection
!       o--ll--o
!Port1            Port2
!       o------o
!Operation Temp=25[C], DC Bias Voltage=0[V]
!Freq. Start=100[kHz] Stop=6[GHz], 401[Steps]
# Hz S RI R 50
!Freq.(Hz)	S 11(Real)	S 11(Imag)	S 21(Real)	S 21(Imag)	S 12(Real)	S 12(Imag)	S 22(Real)	S 22(Imag)	
100000 0.9945879983412157 -0.05170953546702309 0.005412001658784297 0.05170953546702309 0.005412001658784297 0.05170953546702309 0.9945879983412157 -0.05170953546702309
102788.70110918372 0.994320773416436 -0.05307479085840448 0.005679226583563992 0.05307479085840448 0.005679226583563992 0.05307479085840448 0.994320773416436 -0.05307479085840448
105655.17075713107 0.99404180881505 -0.05447345896332187 0.005958191184950061 0.05447345896332187 0.005958191184950061 0.05447345896332187 0.99404180881505 -0.05447345896332187
108601.57767594514 0.9937506828764907 -0.055906266168093806 0.006249317123509383 0.055906266168093806 0.006249317123509383 0.055906266168093806 0.9937506828764907 -0.055906266168093806
111630.15107718526 0.9934469611492835 -0.05737395705116009 0.006553038850716376 0.05737395705116009 0.006553038850716376 0.05737395705116009 0.9934469611492835 -0.05737395705116009
114743.18233845817 0.9931301954358182 -0.058877295375417416 0.006869804564181915 0.058877295375417416 0.006869804564181915 0.058877295375417416 0.9931301954358182 -0.058877295375417416
117943.02673704346 0.992799922691364 -0.06041706509720118 0.0072000773086358825 0.06041706509720118 0.0072000773086358825 0.06041706509720118 0.992799922691364 -0.06041706509720118
121232.10523186425 0.9924556637666181 -0.06199407137906047 0.00754433623338198 0.06199407137906047 0.00754433623338198 0.06199407137906047 0.9924556637666181 -0.06199407137906047
124612.90629515203 0.9920969219840238 -0.06360914159166886 0.007903078015976148 0.06360914159166886 0.007903078015976148 0.06360914159166886 0.9920969219840238 -0.06360914159166886
128087.98779519099 0.9917231815393639 -0.06526312628847818 0.00827681846063622 0.06526312628847818 0.00827681846063622 0.06526312628847818 0.9917231815393639 -0.06526312628847818
131659.9789315666 0.9913339057216264 -0.06695690013510305 0.008666094278373603 0.06695690013510305 0.008666094278373603 0.06695690013510305 0.9913339057216264 -0.06695690013510305
135331.58222438226 0.9909285349459409 -0.06869136277396316 0.009071465054059095 0.06869136277396316 0.009071465054059095 0.06869136277396316 0.9909285349459409 -0.06869136277396316
139105.5755589495 0.9905064845963851 -0.07046743960345685 0.009493515403614922 0.07046743960345685 0.009493515403614922 0.07046743960345685 0.9905064845963851 -0.07046743960345685
142984.81428749833 0.9900671426777062 -0.07228608244993548 0.00993285732229362 0.07228608244993548 0.00993285732229362 0.07228608244993548 0.9900671426777062 -0.07228608244993548
146972.23338949808 0.9896098672774016 -0.0741482701100289 0.010390132722598368 0.0741482701100289 0.010390132722598368 0.0741482701100289 0.9896098672774016 -0.0741482701100289
151070.8496922231 0.9891339838421346 -0.07605500874047277 0.01086601615786537 0.07605500874047277 0.01086601615786537 0.07605500874047277 0.9891339838421346 -0.07605500874047277
155283.7641532434 0.9886387822750825 -0.07800733207252579 0.011361217724917485 0.07800733207252579 0.011361217724917485 0.07800733207252579 0.9886387822750825 -0.07800733207252579
159614.16420656713 0.9881235138634336 -0.08000630142835799 0.011876486136566578 0.08000630142835799 0.011876486136566578 0.08000630142835799 0.9881235138634336 -0.08000630142835799
164065.32617421 0.9875873880478521 -0.08205300551743623 0.012412611952148085 0.08205300551743623 0.012412611952148085 0.08205300551743623 0.9875873880478521 -0.08205300551743623
168640.6177450161 0.987029569048226 -0.08414855999192213 0.012970430951773925 0.08414855999192213 0.012970430951773925 0.08414855999192213 0.987029569048226 -0.08414855999192213
173343.50052260564 0.9864491723623536 -0.08629410674141327 0.013550827637646258 0.08629410674141327 0.013550827637646258 0.08629410674141327 0.9864491723623536 -0.08629410674141327
178177.5326443774 0.9858452611563657 -0.08849081290895988 0.014154738843634483 0.08849081290895988 0.014154738843634483 0.08849081290895988 0.9858452611563657 -0.08849081290895988
183146.37147354736 0.9852168425675719 -0.09073986961214518 0.014783157432428055 0.09073986961214518 0.014783157432428055 0.09073986961214518 0.9852168425675719 -0.09073986961214518
188253.77636625993 0.9845628639420296 -0.09304249035506687 0.015437136057970246 0.09304249035506687 0.015437136057970246 0.09304249035506687 0.9845628639420296 -0.09304249035506687
193503.61151586607 0.9838822090304198 -0.09539990911925528 0.016117790969580298 0.09539990911925528 0.016117790969580298 0.09539990911925528 0.9838822090304198 -0.09539990911925528
198899.8488765196 0.9831736941668087 -0.09781337812383807 0.016826305833191266 0.09781337812383807 0.016826305833191266 0.09781337812383807 0.9831736941668087 -0.09781337812383807
204446.57116830384 0.9824360644555282 -0.10028416524756535 0.017563935544471762 0.10028416524756535 0.017563935544471762 0.10028416524756535 0.9824360644555282 -0.10028416524756535
210147.9749661624 0.9816679899917559 -0.10281355110757093 0.018332010008244123 0.10281355110757093 0.018332010008244123 0.10281355110757093 0.9816679899917559 -0.10281355110757093
216008.37387497092 0.9808680621414627 -0.10540282579192439 0.019131937858537323 0.10540282579192439 0.019131937858537323 0.10540282579192439 0.9808680621414627 -0.10540282579192439
222032.20179315194 0.9800347899062186 -0.1080532852450677 0.019965210093781424 0.1080532852450677 0.019965210093781424 0.1080532852450677 0.9800347899062186 -0.1080532852450677
228224.0162673026 0.9791665963979809 -0.11076622730710081 0.020833403602019154 0.11076622730710081 0.020833403602019154 0.11076622730710081 0.9791665963979809 -0.11076622730710081
234588.50194037252 0.9782618154484739 -0.11354294740955265 0.021738184551526096 0.11354294740955265 0.021738184551526096 0.11354294740955265 0.9782618154484739 -0.11354294740955265
241130.47409600118 0.9773186883771583 -0.11638473393173715 0.022681311622841687 0.11638473393173715 0.022681311622841687 0.11638473393173715 0.9773186883771583 -0.11638473393173715
247854.88230169634 0.976335360941139 -0.11929286322304802 0.023664639058860966 0.11929286322304802 0.023664639058860966 0.11929286322304802 0.976335360941139 -0.11929286322304802
254766.81415360977 0.9753098804897309 -0.12226859429759966 0.02469011951026921 0.12226859429759966 0.02469011951026921 0.12226859429759966 0.9753098804897309 -0.12226859429759966
261871.4991257435 0.97424019334583 -0.1253131632085075 0.02575980665417 0.1253131632085075 0.02575980665417 0.1253131632085075 0.97424019334583 -0.1253131632085075
269174.31252649915 0.9731241424357825 -0.1284277771098443 0.026875857564217526 0.1284277771098443 0.026875857564217526 0.1284277771098443 0.9731241424357825 -0.1284277771098443
276680.7795655633 0.9719594651891131 -0.1316136080149625 0.028040534810887023 0.1316136080149625 0.028040534810887023 0.1316136080149625 0.9719594651891131 -0.1316136080149625
284396.5795342063 0.9707437917293215 -0.13487178626048246 0.029256208270678593 0.13487178626048246 0.029256208270678593 0.13487178626048246 0.9707437917293215 -0.13487178626048246
292327.55010215734 0.969474643376959 -0.13820339368586756 0.03052535662304093 0.13820339368586756 0.03052535662304093 0.13820339368586756 0.969474643376959 -0.13820339368586756
300479.69173430576 0.9681494314863728 -0.14160945653919985 0.03185056851362727 0.14160945653919985 0.03185056851362727 0.14160945653919985 0.9681494314863728 -0.14160945653919985
308859.17223057215 0.9667654566378294 -0.14509093812058704 0.033234543362170646 0.14509093812058704 0.033234543362170646 0.14509093812058704 0.9667654566378294 -0.14509093812058704
317472.3313923818 0.9653199082071796 -0.14864873117562405 0.03468009179282032 0.14864873117562405 0.03468009179282032 0.14864873117562405 0.9653199082071796 -0.14864873117562405
326325.6858192726 0.9638098643357431 -0.15228365005255357 0.036190135664256794 0.15228365005255357 0.036190135664256794 0.15228365005255357 0.9638098643357431 -0.15228365005255357
335425.9338392661 0.9622322923236484 -0.15599642263824842 0.03776770767635161 0.15599642263824842 0.03776770767635161 0.15599642263824842 0.9622322923236484 -0.15599642263824842
344779.96057673154 0.9605840494703813 -0.1597876820899036 0.03941595052961859 0.1597876820899036 0.03941595052961859 0.1597876820899036 0.9605840494703813 -0.1597876820899036
354394.84316157806 0.958861884386707 -0.16365795838140726 0.04113811561329289 0.16365795838140726 0.04113811561329289 0.16365795838140726 0.958861884386707 -0.16365795838140726
364277.85608371487 0.9570624388023705 -0.16760766968572205 0.04293756119762956 0.16760766968572205 0.04293756119762956 0.16760766968572205 0.9570624388023705 -0.16760766968572205
374436.4766968321 0.9551822498939659 -0.17163711361728906 0.044817750106034046 0.17163711361728906 0.044817750106034046 0.17163711361728906 0.9551822498939659 -0.17163711361728906
384878.3908756651 0.9532177531570256 -0.17574645836138078 0.046782246842974266 0.17574645836138078 0.046782246842974266 0.17574645836138078 0.9532177531570256 -0.17574645836138078
395611.4988310233 0.9511652858456285 -0.1799357337204771 0.048834714154371475 0.1799357337204771 0.048834714154371475 0.1799357337204771 0.9511652858456285 -0.1799357337204771
406643.92108698236 0.9490210910016228 -0.18420482211102338 0.05097890899837725 0.18420482211102338 0.05097890899837725 0.18420482211102338 0.9490210910016228 -0.18420482211102338
417984.00462476327 0.9467813220938169 -0.18855344954729306 0.05321867790618298 0.18855344954729306 0.05321867790618298 0.18855344954729306 0.9467813220938169 -0.18855344954729306
429640.32919794455 0.9444420482851863 -0.19298117665241382 0.05555795171481367 0.19298117665241382 0.05555795171481367 0.19298117665241382 0.9444420482851863 -0.19298117665241382
441621.7138237883 0.9419992603432324 -0.1974873897398281 0.058000739656767525 0.1974873897398281 0.058000739656767525 0.1974873897398281 0.9419992603432324 -0.1974873897398281
453937.22345558845 0.9394488772051268 -0.20207129201141608 0.0605511227948733 0.20207129201141608 0.0605511227948733 0.20207129201141608 0.9394488772051268 -0.20207129201141608
466596.17584109225 0.9367867532051517 -0.2067318949210979 0.06321324679484824 0.2067318949210979 0.06321324679484824 0.2067318949210979 0.9367867532051517 -0.2067318949210979
479608.14857218147 0.934008685967298 -0.21146800975481236 0.0659913140327019 0.21146800975481236 0.0659913140327019 0.21146800975481236 0.934008685967298 -0.21146800975481236
492982.9863311494 0.9311104249607165 -0.21627823947921299 0.06888957503928358 0.21627823947921299 0.06888957503928358 0.21627823947921299 0.9311104249607165 -0.21627823947921299
506730.80833905324 0.9280876807101861 -0.22116097091210565 0.07191231928981404 0.22116097091210565 0.07191231928981404 0.22116097091210565 0.9280876807101861 -0.22116097091210565
520862.01601178007 0.924936134647948 -0.2261143672674644 0.07506386535205208 0.2261143672674644 0.07506386535205208 0.2261143672674644 0.924936134647948 -0.2261143672674644
535387.3008296173 0.9216514495873411 -0.23113636112669625 0.07834855041265883 0.23113636112669625 0.07834855041265883 0.23113636112669625 0.9216514495873411 -0.23113636112669625
550317.6524262817 0.9182292807928432 -0.23622464788563208 0.08177071920715678 0.23622464788563208 0.08177071920715678 0.23622464788563208 0.9182292807928432 -0.23622464788563208
565664.3669035273 0.9146652876155786 -0.24137667972344626 0.0853347123844215 0.24137667972344626 0.0853347123844215 0.24137667972344626 0.9146652876155786 -0.24137667972344626
581439.055377623 0.9109551456583446 -0.24658966013537217 0.08904485434165536 0.24658966013537217 0.08904485434165536 0.24658966013537217 0.9109551456583446 -0.24658966013537217
597653.6527641661 0.9070945594299674 -0.2518605390657324 0.0929054405700325 0.2518605390657324 0.0929054405700325 0.2518605390657324 0.9070945594299674 -0.2518605390657324
614320.4268078775 0.9030792754455869 -0.2571860086715511 0.09692072455441317 0.2571860086715511 0.09692072455441317 0.2571860086715511 0.9030792754455869 -0.2571860086715511
631451.987364211 0.8989050957275317 -0.262562499740044 0.10109490427246827 0.262562499740044 0.10109490427246827 0.262562499740044 0.8989050957275317 -0.262562499740044
649061.2959397994 0.8945678916610064 -0.2679861787758031 0.10543210833899355 0.2679861787758031 0.10543210833899355 0.2679861787758031 0.8945678916610064 -0.2679861787758031
667161.6754989547 0.8900636181600508 -0.27345294576583073 0.10993638183994929 0.27345294576583073 0.10993638183994929 0.27345294576583073 0.8900636181600508 -0.27345294576583073
685766.8205436427 0.8853883281023149 -0.27895843262306147 0.11461167189768517 0.27895843262306147 0.11461167189768517 0.27895843262306147 0.8853883281023149 -0.27895843262306147
704890.8074745572 0.8805381869961615 -0.2844980023020838 0.1194618130038385 0.2844980023020838 0.1194618130038385 0.2844980023020838 0.8805381869961615 -0.2844980023020838
724548.1052411343 0.8755094878504699 -0.2900667485748595 0.12449051214953004 0.2900667485748595 0.12449051214953004 0.2900667485748595 0.8755094878504699 -0.2900667485748595
744753.5862885636 0.8702986662261547 -0.2956594964498451 0.12970133377384524 0.2956594964498451 0.12970133377384524 0.2956594964498451 0.8702986662261547 -0.2956594964498451
765522.5378100782 0.8649023154586084 -0.30127080321551813 0.13509768454139168 0.30127080321551813 0.13509768454139168 0.30127080321551813 0.8649023154586084 -0.30127080321551813
786870.6733130394 0.8593172020516779 -0.3068949600893883 0.14068279794832197 0.3068949600893883 0.14068279794832197 0.3068949600893883 0.8593172020516779 -0.3068949600893883
808814.1445075616 0.8535402812559458 -0.3125259944565445 0.14645971874405428 0.3125259944565445 0.14645971874405428 0.3125259944565445 0.8535402812559458 -0.3125259944565445
831369.5535266787 0.8475687128563838 -0.3181576726880189 0.15243128714361634 0.3181576726880189 0.15243128714361634 0.3181576726880189 0.8475687128563838 -0.3181576726880189
854553.9654872931 0.8413998772062259 -0.32378350353898805 0.15860012279377425 0.32378350353898805 0.15860012279377425 0.32378350353898805 0.8413998772062259 -0.32378350353898805
878384.9214014106 0.8350313915543169 -0.32939674214017495 0.16496860844568312 0.32939674214017495 0.16496860844568312 0.32939674214017495 0.8350313915543169 -0.32939674214017495
902880.4514474344 0.8284611267214103 -0.3349903946127421 0.17153887327858963 0.3349903946127421 0.17153887327858963 0.3349903946127421 0.8284611267214103 -0.3349903946127421
928059.088611552 0.8216872241859796 -0.3405572233571927 0.1783127758140203 0.3405572233571927 0.1783127758140203 0.3405572233571927 0.8216872241859796 -0.3405572233571927
953939.8827095425 0.8147081136411674 -0.3460897530899144 0.18529188635883276 0.3460897530899144 0.18529188635883276 0.3460897530899144 0.8147081136411674 -0.3460897530899144
980542.4147996095 0.8075225310806775 -0.35158027772630374 0.1924774689193225 0.35158027772630374 0.1924774689193225 0.35158027772630374 0.8075225310806775 -0.35158027772630374
1007886.811997143 0.8001295374619488 -0.3570208682360273 0.19987046253805113 0.3570208682360273 0.19987046253805113 0.3570208682360273 0.8001295374619488 -0.3570208682360273
1035993.7627026237 0.792528537979206 -0.3624033816228168 0.20747146202079395 0.3624033816228168 0.20747146202079395 0.3624033816228168 0.792528537979206 -0.3624033816228168
1064884.5322541862 0.784719301956595 -0.3677194712069595 0.21528069804340502 0.3677194712069595 0.21528069804340502 0.3677194712069595 0.784719301956595 -0.3677194712069595
1094580.9790166845 0.776701983342368 -0.37296059841192813 0.22329801665763213 0.37296059841192813 0.22329801665763213 0.37296059841192813 0.776701983342368 -0.37296059841192813
1125105.5709194369 0.7684771417491493 -0.37811804627585693 0.23152285825085078 0.37811804627585693 0.23152285825085078 0.37811804627585693 0.7684771417491493 -0.37811804627585693
1156481.402455155 0.7600457639431424 -0.38318293492224204 0.2399542360568576 0.38318293492224204 0.2399542360568576 0.38318293492224204 0.7600457639431424 -0.38318293492224204
1188732.2121529256 0.7514092856375152 -0.3881462392308069 0.2485907143624848 0.3881462392308069 0.2485907143624848 0.3881462392308069 0.7514092856375152 -0.3881462392308069
1221882.4005384583 0.7425696133933039 -0.3929988089474703 0.25743038660669615 0.3929988089474703 0.25743038660669615 0.3929988089474703 0.7425696133933039 -0.3929988089474703
1255957.0485951952 0.7335291463764724 -0.39773139146055697 0.26647085362352757 0.39773139146055697 0.26647085362352757 0.39773139146055697 0.7335291463764724 -0.39773139146055697
1290981.9367402405 0.7242907976640914 -0.4023346574477932 0.2757092023359085 0.4023346574477932 0.2757092023359085 0.4023346574477932 0.7242907976640914 -0.4023346574477932
1326983.5643294768 0.7148580147379913 -0.4067992295645918 0.28514198526200873 0.4067992295645918 0.28514198526200873 0.4067992295645918 0.7148580147379913 -0.4067992295645918
1363989.1697066186 0.7052347987530169 -0.41111571429839333 0.2947652012469832 0.41111571429839333 0.2947652012469832 0.41111571429839333 0.7052347987530169 -0.41111571429839333
1402026.750811373 0.6954257221215326 -0.4152747370565919 0.3045742778784672 0.4152747370565919 0.3045742778784672 0.4152747370565919 0.6954257221215326 -0.4152747370565919
1441125.0863623023 0.6854359439185308 -0.41926698048754574 0.3145640560814692 0.41926698048754574 0.3145640560814692 0.41926698048754574 0.6854359439185308 -0.41926698048754574
1481313.7576304127 0.6752712225849556 -0.42308322595654135 0.3247287774150444 0.42308322595654135 0.3247287774150444 0.42308322595654135 0.6752712225849556 -0.42308322595654135
1522623.170819943 0.6649379253928304 -0.4267143980130745 0.3350620746071697 0.4267143980130745 0.3350620746071697 0.4267143980130745 0.6649379253928304 -0.4267143980130745
1565084.5800732872 0.6544430341363512 -0.4301516115946176 0.3455569658636488 0.4301516115946176 0.3455569658636488 0.4301516115946176 0.6544430341363512 -0.4301516115946176
1608730.1111174547 0.6437941465297834 -0.433386221617789 0.35620585347021655 0.433386221617789 0.35620585347021655 0.433386221617789 0.6437941465297834 -0.433386221617789
1653592.7855699598 0.6329994728267447 -0.436409874513501 0.36700052717325515 0.436409874513501 0.36700052717325515 0.436409874513501 0.6329994728267447 -0.436409874513501
1699706.545922531 0.6220678272267142 -0.4392145611714725 0.3779321727732859 0.4392145611714725 0.3779321727732859 0.4392145611714725 0.6220678272267142 -0.4392145611714725
1747106.281221541 0.6110086137031115 -0.4417926706748217 0.3889913862968883 0.4417926706748217 0.3889913862968883 0.4417926706748217 0.6110086137031115 -0.4417926706748217
1795827.853464585 0.5998318059721846 -0.4441370441306858 0.4001681940278155 0.4441370441306858 0.4001681940278155 0.4441370441306858 0.5998318059721846 -0.4441370441306858
1845908.1247331821 0.5885479214215793 -0.4462410278411866 0.41145207857842075 0.4462410278411866 0.41145207857842075 0.4462410278411866 0.5885479214215793 -0.4462410278411866
1897384.9850821288 0.5771679889296459 -0.44809852501353886 0.42283201107035406 0.44809852501353886 0.42283201107035406 0.44809852501353886 0.5771679889296459 -0.44809852501353886
1950297.3812065995 0.5657035106283242 -0.4497040451812182 0.43429648937167586 0.4497040451812182 0.43429648937167586 0.4497040451812182 0.5657035106283242 -0.4497040451812182
2004685.345908689 0.5541664177905103 -0.451052750501849 0.44583358220948965 0.451052750501849 0.44583358220948965 0.451052750501849 0.5541664177905103 -0.451052750501849
