!Murata Part Number: GRM022R71A221KA01
!These Parameters are Measured in Series Mode Connection
!       o--ll--o
!Port1            Port2
!       o------o
!Operation Temp=25[C], DC Bias Voltage=0[V]
!Freq. Start=3[MHz] Stop=6[GHz], 401[Steps]
# Hz S RI R 50
!Freq.(Hz)	S 11(Real)	S 11(Imag)	S 21(Real)	S 21(Imag)	S 12(Real)	S 12(Imag)	S 22(Real)	S 22(Imag)	
3000000 0.8622113667449319 -0.3385790543187639 0.1377886332550682 0.3385790543187639 0.1377886332550682 0.3385790543187639 0.8622113667449319 -0.3385790543187639
3057551.8441365347 0.8576913059136052 -0.34317179326681674 0.14230869408639482 0.34317179326681674 0.14230869408639482 0.34317179326681674 0.8576913059136052 -0.34317179326681674
3116207.759860909 0.8530499112666101 -0.3477648877051792 0.14695008873338974 0.3477648877051792 0.14695008873338974 0.3477648877051792 0.8530499112666101 -0.3477648877051792
3175988.927625101 0.848285660743199 -0.3523550768616167 0.15171433925680103 0.3523550768616167 0.15171433925680103 0.3523550768616167 0.848285660743199 -0.3523550768616167
3236916.9342057817 0.843397126618934 -0.3569389775205158 0.15660287338106602 0.3569389775205158 0.15660287338106602 0.3569389775205158 0.843397126618934 -0.3569389775205158
3299013.780499222 0.8383829833471045 -0.36151308559266176 0.16161701665289543 0.36151308559266176 0.16161701665289543 0.36151308559266176 0.8383829833471045 -0.36151308559266176
3362301.8894657465 0.8332420155183488 -0.3660737781726356 0.1667579844816512 0.3660737781726356 0.1667579844816512 0.3660737781726356 0.8332420155183488 -0.3660737781726356
3426804.114226583 0.8279731259096119 -0.3706173161063345 0.1720268740903881 0.3706173161063345 0.1720268740903881 0.3706173161063345 0.8279731259096119 -0.3706173161063345
3492543.746316052 0.8225753435909041 -0.37513984708965425 0.1774246564090959 0.37513984708965425 0.1774246564090959 0.37513984708965425 0.8225753435909041 -0.37513984708965425
3559544.5240920554 0.8170478320556915 -0.37963740931761686 0.18295216794430846 0.37963740931761686 0.18295216794430846 0.37963740931761686 0.8170478320556915 -0.37963740931761686
3627830.641307924 0.8113898973381741 -0.38410593570119345 0.18861010266182582 0.38410593570119345 0.18861010266182582 0.38410593570119345 0.8113898973381741 -0.38410593570119345
3697426.75584869 0.8056009960782293 -0.3885412586667327 0.19439900392177054 0.3885412586667327 0.19439900392177054 0.3885412586667327 0.8056009960782293 -0.3885412586667327
3768357.998634976 0.7996807434924368 -0.3929391155502812 0.20031925650756308 0.3929391155502812 0.20031925650756308 0.3929391155502812 0.7996807434924368 -0.3929391155502812
3840649.9826976783 0.7936289212074013 -0.39729515459615256 0.20637107879259886 0.39729515459615256 0.20637107879259886 0.39729515459615256 0.7936289212074013 -0.39729515459615256
3914328.812426746 0.7874454849095767 -0.40160494156589555 0.2125545150904234 0.40160494156589555 0.2125545150904234 0.40160494156589555 0.7874454849095767 -0.40160494156589555
3989421.0929973903 0.7811305717640131 -0.4058639669603181 0.21886942823598682 0.4058639669603181 0.21886942823598682 0.4058639669603181 0.7811305717640131 -0.4058639669603181
4065953.9399771206 0.7746845075529186 -0.4100676538534653 0.2253154924470814 0.4100676538534653 0.2253154924470814 0.4100676538534653 0.7746845075529186 -0.4100676538534653
4143954.989117086 0.7681078134837004 -0.41421136633344957 0.23189218651629973 0.41421136633344957 0.23189218651629973 0.41421136633344957 0.7681078134837004 -0.41421136633344957
4223452.406331247 0.7614012126152544 -0.4182904185407966 0.23859878738474566 0.4182904185407966 0.23859878738474566 0.4182904185407966 0.7614012126152544 -0.4182904185407966
4304474.897866997 0.7545656358507241 -0.42230008429054455 0.24543436414927589 0.42230008429054455 0.24543436414927589 0.42230008429054455 0.7545656358507241 -0.42230008429054455
4387051.720670886 0.7476022274448092 -0.426235607259734 0.25239777255519086 0.426235607259734 0.25239777255519086 0.426235607259734 0.7476022274448092 -0.426235607259734
4471212.692953209 0.7405123499739769 -0.4300922117171964 0.2594876500260232 0.4300922117171964 0.2594876500260232 0.4300922117171964 0.7405123499739769 -0.4300922117171964
4556988.204955257 0.7332975887186427 -0.43386511376772413 0.2667024112813572 0.43386511376772413 0.2667024112813572 0.43386511376772413 0.7332975887186427 -0.43386511376772413
4644409.229923128 0.7259597554075764 -0.4375495330778275 0.2740402445924236 0.4375495330778275 0.2740402445924236 0.4375495330778275 0.7259597554075764 -0.4375495330778275
4733507.335292068 0.7185008912764453 -0.441140705045407 0.28149910872355455 0.441140705045407 0.28149910872355455 0.441140705045407 0.7185008912764453 -0.441140705045407
4824314.69408536 0.7109232693945823 -0.44463389337082804 0.28907673060541766 0.44463389337082804 0.28907673060541766 0.44463389337082804 0.7109232693945823 -0.44463389337082804
4916864.096531892 0.7032293962167079 -0.4480244029821542 0.29677060378329206 0.4480244029821542 0.29677060378329206 0.4480244029821542 0.7032293962167079 -0.4480244029821542
5011188.961906602 0.6954220123195228 -0.4513075932626972 0.30457798768047734 0.4513075932626972 0.30457798768047734 0.4513075932626972 0.6954220123195228 -0.4513075932626972
5107323.35059806 0.687504092286727 -0.4544788915246715 0.312495907713273 0.4544788915246715 0.312495907713273 0.4544788915246715 0.687504092286727 -0.4544788915246715
5205301.976407561 0.6794788437101918 -0.45753380666861176 0.32052115628980826 0.45753380666861176 0.32052115628980826 0.45753380666861176 0.6794788437101918 -0.45753380666861176
5305160.219084163 0.6713497052796102 -0.460467942964415 0.3286502947203898 0.460467942964415 0.3286502947203898 0.460467942964415 0.6713497052796102 -0.460467942964415
5406934.137100189 0.6631203439380323 -0.46327701388643977 0.33687965606196774 0.46327701388643977 0.33687965606196774 0.46327701388643977 0.6631203439380323 -0.46327701388643977
5510660.480671823 0.6547946510861529 -0.4659568559320913 0.3452053489138472 0.4659568559320913 0.3452053489138472 0.4659568559320913 0.6547946510861529 -0.4659568559320913
5616376.705029487 0.6463767378240832 -0.4685034423507958 0.3536232621759168 0.4685034423507958 0.3536232621759168 0.4685034423507958 0.6463767378240832 -0.4685034423507958
5724120.983942795 0.6378709292255206 -0.47091289670826514 0.3621290707744794 0.47091289670826514 0.3621290707744794 0.47091289670826514 0.6378709292255206 -0.47091289670826514
5833932.223504976 0.629281757645698 -0.4731815062095219 0.37071824235430184 0.4731815062095219 0.37071824235430184 0.4731815062095219 0.629281757645698 -0.4731815062095219
5945850.076181732 0.6206139550711921 -0.475305734703321 0.37938604492880806 0.475305734703321 0.37938604492880806 0.475305734703321 0.6206139550711921 -0.475305734703321
6059914.955129605 0.611872444526527 -0.47728223529042024 0.3881275554734731 0.47728223529042024 0.3881275554734731 0.47728223529042024 0.611872444526527 -0.47728223529042024
6176168.04878903 0.6030623305594837 -0.4791078624586211 0.39693766944051617 0.4791078624586211 0.39693766944051617 0.4791078624586211 0.6030623305594837 -0.4791078624586211
6294651.335757349 0.5941888888340009 -0.4807796836686613 0.40581111116599905 0.4807796836686613 0.40581111116599905 0.4807796836686613 0.5941888888340009 -0.4807796836686613
6415407.599947128 0.585257554866525 -0.4822949903168911 0.4147424451334749 0.4822949903168911 0.4147424451334749 0.4822949903168911 0.585257554866525 -0.4822949903168911
6538480.446035294 0.5762739119484925 -0.4836513080032155 0.42372608805150747 0.4836513080032155 0.42372608805150747 0.4836513080032155 0.5762739119484925 -0.4836513080032155
6663914.31520863 0.5672436783042792 -0.48484640603602386 0.4327563216957208 0.48484640603602386 0.4327563216957208 0.48484640603602386 0.5672436783042792 -0.48484640603602386
6791754.501211335 0.5581726935403298 -0.4858783061097514 0.4418273064596701 0.4858783061097514 0.4418273064596701 0.4858783061097514 0.5581726935403298 -0.4858783061097514
6922047.166700442 0.5490669044472197 -0.48674529009528833 0.4509330955527803 0.48674529009528833 0.4509330955527803 0.48674529009528833 0.5490669044472197 -0.48674529009528833
7054839.359915006 0.539932350222019 -0.48744590688864986 0.4600676497779809 0.48744590688864986 0.4600676497779809 0.48744590688864986 0.539932350222019 -0.48744590688864986
7190179.031665047 0.5307751471834753 -0.4879789782691015 0.46922485281652465 0.4879789782691015 0.46922485281652465 0.4879789782691015 0.5307751471834753 -0.4879789782691015
7328115.052646436 0.5216014730571086 -0.4883436037242454 0.4783985269428916 0.4883436037242454 0.4783985269428916 0.4883436037242454 0.5216014730571086 -0.4883436037242454
7468697.231087938 0.5124175509112925 -0.4885391642063579 0.4875824490887076 0.4885391642063579 0.4875824490887076 0.4885391642063579 0.5124175509112925 -0.4885391642063579
7611976.330736786 0.503229632828709 -0.48856532479147474 0.4967703671712909 0.48856532479147474 0.4967703671712909 0.48856532479147474 0.503229632828709 -0.48856532479147474
7758004.089189305 0.49404398340015604 -0.48842203622024893 0.5059560165998439 0.48842203622024893 0.5059560165998439 0.48842203622024893 0.49404398340015604 -0.48842203622024893
7906833.236573181 0.484866863129542 -0.48810953530741363 0.515133136870458 0.48810953530741363 0.515133136870458 0.48810953530741363 0.484866863129542 -0.48810953530741363
8058517.514588126 0.4757045118399687 -0.4876283442146614 0.5242954881600314 0.4876283442146614 0.5242954881600314 0.4876283442146614 0.4757045118399687 -0.4876283442146614
8213111.69591183 0.46656313217107714 -0.4869792685898249 0.5334368678289231 0.4869792685898249 0.5334368678289231 0.4869792685898249 0.46656313217107714 -0.4869792685898249
8370671.603978188 0.45744887325728983 -0.48616339458332947 0.5425511267427102 0.48616339458332947 0.5425511267427102 0.48616339458332947 0.45744887325728983 -0.48616339458332947
8531254.133134946 0.4483678146752422 -0.48518208476088776 0.551632185324758 0.48518208476088776 0.551632185324758 0.48518208476088776 0.4483678146752422 -0.48518208476088776
8694917.269188063 0.4393259507465573 -0.48403697293923525 0.5606740492534427 0.48403697293923525 0.5606740492534427 0.48403697293923525 0.4393259507465573 -0.48403697293923525
8861720.11034019 0.4303291752792018 -0.48272995797928103 0.5696708247207981 0.48272995797928103 0.5696708247207981 0.48272995797928103 0.4303291752792018 -0.48272995797928103
9031722.88853082 0.4213832668270177 -0.48126319657827615 0.5786167331729823 0.48126319657827615 0.5786167331729823 0.48126319657827615 0.4213832668270177 -0.48126319657827615
9204986.991185855 0.41249387454266884 -0.4796390951094132 0.587506125457331 0.4796390951094132 0.587506125457331 0.4796390951094132 0.41249387454266884 -0.4796390951094132
9381574.983384376 0.4036665046942546 -0.47786030056358836 0.5963334953057454 0.47786030056358836 0.5963334953057454 0.47786030056358836 0.4036665046942546 -0.47786030056358836
9561550.630450694 0.39490650791026627 -0.47592969065380597 0.6050934920897336 0.47592969065380597 0.6050934920897336 0.47592969065380597 0.39490650791026627 -0.47592969065380597
9744978.92097979 0.38621906721146815 -0.4738503631478476 0.6137809327885319 0.4738503631478476 0.6137809327885319 0.4738503631478476 0.38621906721146815 -0.4738503631478476
9931926.090304473 0.3776091868817599 -0.4716256244992862 0.6223908131182403 0.4716256244992862 0.6223908131182403 0.4716256244992862 0.3776091868817599 -0.4716256244992862
10122459.644412737 0.36908168222317567 -0.46925897785068416 0.6309183177768244 0.46925897785068416 0.6309183177768244 0.46925897785068416 0.36908168222317567 -0.46925897785068416
10316648.384323942 0.3606411702330156 -0.46675411048583015 0.6393588297669844 0.46675411048583015 0.6393588297669844 0.46675411048583015 0.3606411702330156 -0.46675411048583015
10514562.430932624 0.3522920612337323 -0.46411488081012264 0.6477079387662676 0.46411488081012264 0.6477079387662676 0.46411488081012264 0.3522920612337323 -0.46411488081012264
10716273.250328925 0.3440385514787398 -0.46134530493970355 0.6559614485212601 0.46134530493970355 0.6559614485212601 0.46134530493970355 0.3440385514787398 -0.46134530493970355
10921853.67960474 0.3358846167498211 -0.4584495429806654 0.6641153832501788 0.4584495429806654 0.6641153832501788 0.4584495429806654 0.3358846167498211 -0.4584495429806654
11131377.953154959 0.32783400695439335 -0.45543188507962956 0.6721659930456066 0.45543188507962956 0.6721659930456066 0.45543188507962956 0.32783400695439335 -0.45543188507962956
11344921.729483237 0.31989024172361497 -0.45229673732623454 0.6801097582763851 0.45229673732623454 0.6801097582763851 0.45229673732623454 0.31989024172361497 -0.45229673732623454
11562562.11852204 0.3120566070052782 -0.4490486075866191 0.6879433929947216 0.4490486075866191 0.6879433929947216 0.4490486075866191 0.3120566070052782 -0.4490486075866191
11784377.709476769 0.30433615263866587 -0.4456920913448692 0.695663847361334 0.4456920913448692 0.695663847361334 0.4456920913448692 0.30433615263866587 -0.4456920913448692
12010448.599204058 0.296731690892162 -0.44223185762667383 0.703268309107838 0.44223185762667383 0.703268309107838 0.44223185762667383 0.296731690892162 -0.44223185762667383
12240856.42113448 0.2892457959384235 -0.4386726350761557 0.7107542040615766 0.4386726350761557 0.7107542040615766 0.4386726350761557 0.2892457959384235 -0.4386726350761557
12475684.37475009 0.28188080423640527 -0.43501919825306407 0.7181191957635947 0.43501919825306407 0.7181191957635947 0.43501919825306407 0.28188080423640527 -0.43501919825306407
12715017.255627498 0.27463881578451776 -0.43127635421330707 0.7253611842154823 0.43127635421330707 0.7253611842154823 0.43127635421330707 0.27463881578451776 -0.43127635421330707
12958941.486057242 0.267521696204722 -0.4274489294312204 0.7324783037952779 0.4274489294312204 0.7324783037952779 0.4274489294312204 0.267521696204722 -0.4274489294312204
13207545.14625059 0.2605310796134571 -0.423541757117099 0.7394689203865429 0.423541757117099 0.7394689203865429 0.423541757117099 0.2605310796134571 -0.423541757117099
13460918.006145012 0.25366837223194655 -0.4195596649783989 0.7463316277680534 0.4195596649783989 0.7463316277680534 0.4195596649783989 0.25366837223194655 -0.4195596649783989
13719151.557819791 0.24693475668567336 -0.4155074634677562 0.7530652433143267 0.4155074634677562 0.7530652433143267 0.4155074634677562 0.24693475668567336 -0.4155074634677562
13982339.048533507 0.2403311969406328 -0.41138993455559386 0.7596688030593672 0.41138993455559386 0.7596688030593672 0.41138993455559386 0.2403311969406328 -0.41138993455559386
14250575.5143953 0.23385844382234988 -0.4072118210596859 0.7661415561776501 0.4072118210596859 0.7661415561776501 0.4072118210596859 0.23385844382234988 -0.4072118210596859
14523957.814682102 0.22751704106259069 -0.4029778165586714 0.7724829589374094 0.4029778165586714 0.7724829589374094 0.4029778165586714 0.22751704106259069 -0.4029778165586714
14802584.666814169 0.22130733181816192 -0.398692555911215 0.7786926681818378 0.398692555911215 0.7786926681818378 0.398692555911215 0.22130733181816192 -0.398692555911215
15086556.682001619 0.21522946560615455 -0.3943606063973442 0.7847705343938454 0.3943606063973442 0.7847705343938454 0.3943606063973442 0.21522946560615455 -0.3943606063973442
15375976.401574805 0.20928340560043054 -0.3899864594935074 0.7907165943995695 0.3899864594935074 0.7907165943995695 0.3899864594935074 0.20928340560043054 -0.3899864594935074
15670948.334011631 0.203468936235014 -0.38557452328813097 0.796531063764986 0.38557452328813097 0.796531063764986 0.38557452328813097 0.203468936235014 -0.38557452328813097
15971578.992675211 0.19778567106131123 -0.38112911553993023 0.8022143289386889 0.38112911553993023 0.8022143289386889 0.38112911553993023 0.19778567106131123 -0.38112911553993023
16277976.934275478 0.19223306080770164 -0.37665445737699815 0.8077669391922984 0.37665445737699815 0.8077669391922984 0.37665445737699815 0.19223306080770164 -0.37665445737699815
16590252.798068656 0.18681040159195983 -0.3721546676307604 0.8131895984080401 0.3721546676307604 0.8131895984080401 0.3721546676307604 0.18681040159195983 -0.3721546676307604
16908519.34580871 0.18151684323917036 -0.36763375779527074 0.8184831567608296 0.36763375779527074 0.8184831567608296 0.36763375779527074 0.18151684323917036 -0.36763375779527074
17232891.502465237 0.1763513976602063 -0.3630956275990451 0.8236486023397938 0.3630956275990451 0.8236486023397938 0.3630956275990451 0.1763513976602063 -0.3630956275990451
17563486.397722468 0.17131294724845056 -0.35854406117368937 0.8286870527515496 0.35854406117368937 0.8286870527515496 0.35854406117368937 0.17131294724845056 -0.35854406117368937
17900423.408274427 0.16640025325517913 -0.3539827238009749 0.8335997467448208 0.3539827238009749 0.8335997467448208 0.3539827238009749 0.16640025325517913 -0.3539827238009749
18243824.200931422 0.16161196410687648 -0.34941515921776106 0.8383880358931235 0.34941515921776106 0.8383880358931235 0.34941515921776106 0.16161196410687648 -0.34941515921776106
18593812.77655354 0.15694662363067144 -0.3448447874562332 0.8430533763693285 0.3448447874562332 0.8430533763693285 0.3448447874562332 0.15694662363067144 -0.3448447874562332
18950515.514826916 0.1524026791570298 -0.34027490319532366 0.8475973208429703 0.34027490319532366 0.8475973208429703 0.34027490319532366 0.1524026791570298 -0.34027490319532366
19314061.21989902 0.1479784894717974 -0.33570867459789006 0.8520215105282024 0.33570867459789006 0.8520215105282024 0.33570867459789006 0.1479784894717974 -0.33570867459789006
19684581.166889396 0.14367233259261677 -0.3311491426072368 0.8563276674073831 0.3311491426072368 0.8563276674073831 0.3311491426072368 0.14367233259261677 -0.3311491426072368
20062209.14929266 0.1394824133476133 -0.32659922067584096 0.8605175866523866 0.32659922067584096 0.8605175866523866 0.32659922067584096 0.1394824133476133 -0.32659922067584096
20447081.52729088 0.13540687073705948 -0.32206169489869935 0.8645931292629404 0.32206169489869935 0.8645931292629404 0.32206169489869935 0.13540687073705948 -0.32206169489869935
20839337.27699277 0.13144378506143525 -0.3175392245235018 0.8685562149385647 0.3175392245235018 0.8685562149385647 0.3175392245235018 0.13144378506143525 -0.3175392245235018
21239118.0406175 0.12759118480190287 -0.31303434280983683 0.8724088151980969 0.31303434280983683 0.8724088151980969 0.31303434280983683 0.12759118480190287 -0.31303434280983683
21646568.177641194 0.12384705324170556 -0.3085494582098614 0.8761529467582944 0.3085494582098614 0.8761529467582944 0.3085494582098614 0.12384705324170556 -0.3085494582098614
22061834.81692469 0.12020933481933985 -0.30408685584324624 0.8797906651806601 0.30408685584324624 0.8797906651806601 0.30408685584324624 0.12020933481933985 -0.30408685584324624
22485067.909841236 0.11667594120656508 -0.2996486992397668 0.883324058793435 0.2996486992397668 0.883324058793435 0.2996486992397668 0.11667594120656508 -0.2996486992397668
22916420.284423433 0.11324475710636951 -0.29523703232359483 0.8867552428936306 0.29523703232359483 0.8867552428936306 0.29523703232359483 0.11324475710636951 -0.29523703232359483
23356047.700548925 0.10991364576792817 -0.29085378161416264 0.8900863542320719 0.29085378161416264 0.8900863542320719 0.29085378161416264 0.10991364576792817 -0.29085378161416264
23804108.906184748 0.10668045421733757 -0.28650075861937535 0.8933195457826625 0.28650075861937535 0.8933195457826625 0.28650075861937535 0.10668045421733757 -0.28650075861937535
24260765.6947107 0.10354301820452445 -0.28217966239794967 0.8964569817954756 0.28217966239794967 0.8964569817954756 0.28217966239794967 0.10354301820452445 -0.28217966239794967
