!Murata Part Number: LQP02TN6N8J02
!These Parameters are Measured in Series Mode Connection
!       o--[+]--o
!Port1              Port2
!       o-------o
!Freq. Start=100[MHz] Stop=6[GHz], 401[Steps]
# Hz S RI R 50
!Freq.(Hz)	S 11(Real)	S 11(Imag)	S 21(Real)	S 21(Imag)	S 12(Real)	S 12(Imag)	S 22(Real)	S 22(Imag)	
100000000 0.013030420433300431 0.04164192199016469 0.9869695795666995 -0.04164192199016469 0.9869695795666995 -0.04164192199016469 0.013030420433300431 0.04164192199016469
101028842.70333165 0.01310386415612998 0.042054471156979606 0.98689613584387 -0.042054471156979606 0.98689613584387 -0.042054471156979606 0.01310386415612998 0.042054471156979606
102068270.57974531 0.013178137552083122 0.0424710674513783 0.9868218624479166 -0.0424710674513783 0.9868218624479166 -0.0424710674513783 0.013178137552083122 0.0424710674513783
103118392.53402182 0.01325325495952227 0.04289174955624897 0.9867467450404779 -0.04289174955624897 0.9867467450404779 -0.04289174955624897 0.01325325495952227 0.04289174955624897
104179318.591401 0.013329230992057737 0.04331655649584892 0.9866707690079424 -0.04331655649584892 0.9866707690079424 -0.04331655649584892 0.013329230992057737 0.04331655649584892
105251159.90910926 0.01340608054385707 0.043745527637977094 0.9865939194561428 -0.043745527637977094 0.9865939194561428 -0.043745527637977094 0.01340608054385707 0.043745527637977094
106334028.78800607 0.013483818795053707 0.04417870269613283 0.9865161812049464 -0.04417870269613283 0.9865161812049464 -0.04417870269613283 0.013483818795053707 0.04417870269613283
107428038.68435004 0.013562461217256924 0.04461612173166029 0.9864375387827433 -0.04461612173166029 0.9864375387827433 -0.04461612173166029 0.013562461217256924 0.04461612173166029
108533304.2216863 0.01364202357916458 0.04505782515587718 0.9863579764208354 -0.04505782515587718 0.9863579764208354 -0.04505782515587718 0.01364202357916458 0.04505782515587718
109649941.20285586 0.013722521952280612 0.04550385373218644 0.9862774780477193 -0.04550385373218644 0.9862774780477193 -0.04550385373218644 0.013722521952280612 0.04550385373218644
110778066.62212887 0.013803972716738994 0.04595424857816988 0.986196027283261 -0.04595424857816988 0.986196027283261 -0.04595424857816988 0.013803972716738994 0.04595424857816988
111917798.67746255 0.013886392567236039 0.04640905116766211 0.9861136074327639 -0.04640905116766211 0.9861136074327639 -0.04640905116766211 0.013886392567236039 0.04640905116766211
113069256.78288502 0.013969798519072879 0.04686830333280395 0.9860302014809271 -0.04686830333280395 0.9860302014809271 -0.04686830333280395 0.013969798519072879 0.04686830333280395
114232561.58100708 0.014054207914309957 0.04733204726607331 0.9859457920856901 -0.04733204726607331 0.9859457920856901 -0.04733204726607331 0.014054207914309957 0.04733204726607331
115407834.95566209 0.014139638428035546 0.04780032552229255 0.9858603615719647 -0.04780032552229255 0.9858603615719647 -0.04780032552229255 0.014139638428035546 0.04780032552229255
116595200.04467647 0.01422610807475011 0.04827318102061072 0.9857738919252497 -0.04827318102061072 0.9857738919252497 -0.04827318102061072 0.01422610807475011 0.04827318102061072
117794781.25277108 0.014313635214868546 0.0487506570464591 0.9856863647851314 -0.0487506570464591 0.9856863647851314 -0.0487506570464591 0.014313635214868546 0.0487506570464591
119006704.2645957 0.014402238561342207 0.04923279725347832 0.9855977614386578 -0.04923279725347832 0.9855977614386578 -0.04923279725347832 0.014402238561342207 0.04923279725347832
120231096.05789746 0.014491937186402747 0.049719645665415695 0.9855080628135972 -0.049719645665415695 0.9855080628135972 -0.049719645665415695 0.014491937186402747 0.049719645665415695
121468084.91682482 0.014582750528429942 0.05021124667799109 0.98541724947157 -0.05021124667799109 0.98541724947157 -0.05021124667799109 0.014582750528429942 0.05021124667799109
122717800.44536826 0.014674698398945236 0.050707645060729 0.9853253016010547 -0.050707645060729 0.9853253016010547 -0.050707645060729 0.014674698398945236 0.050707645060729
123980373.58093955 0.01476780098973346 0.05120888595875596 0.9852321990102665 -0.05120888595875596 0.9852321990102665 -0.05120888595875596 0.01476780098973346 0.05120888595875596
125255936.60809036 0.014862078880094507 0.05171501489456061 0.9851379211199054 -0.05171501489456061 0.9851379211199054 -0.05171501489456061 0.014862078880094507 0.05171501489456061
126544623.17237243 0.014957553044227337 0.05222607776971481 0.9850424469557727 -0.05222607776971481 0.9850424469557727 -0.05222607776971481 0.014957553044227337 0.05222607776971481
127846568.29433991 0.0150542448587483 0.05274212086655396 0.9849457551412514 -0.05274212086655396 0.9849457551412514 -0.05274212086655396 0.0150542448587483 0.05274212086655396
129161908.38369614 0.015152176110346053 0.05326319084981427 0.9848478238896541 -0.05326319084981427 0.9848478238896541 -0.05326319084981427 0.015152176110346053 0.05326319084981427
130490781.25358573 0.015251369003575198 0.05378933476822476 0.9847486309964246 -0.05378933476822476 0.9847486309964246 -0.05378933476822476 0.015251369003575198 0.05378933476822476
131833326.13503371 0.01535184616879096 0.05432060005605221 0.9846481538312092 -0.05432060005605221 0.9846481538312092 -0.05432060005605221 0.01535184616879096 0.05432060005605221
133189683.69153343 0.015453630670227043 0.05485703453459627 0.984546369329773 -0.05485703453459627 0.984546369329773 -0.05485703453459627 0.015453630670227043 0.05485703453459627
134559996.03378427 0.015556746014219013 0.05539868641363298 0.9844432539857811 -0.05539868641363298 0.9844432539857811 -0.05539868641363298 0.015556746014219013 0.05539868641363298
135944406.73458123 0.015661216157575524 0.055945604292803784 0.9843387838424243 -0.055945604292803784 0.9843387838424243 -0.055945604292803784 0.015661216157575524 0.055945604292803784
137343060.84385747 0.015767065516099587 0.056497837162947845 0.9842329344839006 -0.056497837162947845 0.9842329344839006 -0.056497837162947845 0.015767065516099587 0.056497837162947845
138756104.90388185 0.015874318973262337 0.05705543440737508 0.9841256810267377 -0.05705543440737508 0.9841256810267377 -0.05705543440737508 0.015874318973262337 0.05705543440737508
140183686.96461266 0.01598300188903165 0.05761844580307731 0.9840169981109681 -0.05761844580307731 0.9840169981109681 -0.05761844580307731 0.01598300188903165 0.05761844580307731
141625956.59920937 0.01609314010885789 0.058186921521874616 0.9839068598911422 -0.058186921521874616 0.9839068598911422 -0.058186921521874616 0.01609314010885789 0.058186921521874616
143083064.919704 0.016204759972819293 0.05876091213149419 0.9837952400271808 -0.05876091213149419 0.9837952400271808 -0.05876091213149419 0.016204759972819293 0.05876091213149419
144555164.59283367 0.01631788832492941 0.059340468596579286 0.9836821116750704 -0.059340468596579286 0.9836821116750704 -0.059340468596579286 0.01631788832492941 0.059340468596579286
146042409.8560361 0.016432552522608956 0.059925642279624367 0.9835674474773909 -0.059925642279624367 0.9835674474773909 -0.059925642279624367 0.016432552522608956 0.059925642279624367
147544956.53360963 0.016548780446324587 0.060516484941834016 0.9834512195536754 -0.060516484941834016 0.9834512195536754 -0.060516484941834016 0.016548780446324587 0.060516484941834016
149062962.05303955 0.016666600509397143 0.06111304874390264 0.9833333994906027 -0.06111304874390264 0.9833333994906027 -0.06111304874390264 0.016666600509397143 0.06111304874390264
150596585.46149227 0.01678604166798167 0.06171538624671092 0.9832139583320182 -0.06171538624671092 0.9832139583320182 -0.06171538624671092 0.01678604166798167 0.06171538624671092
152145987.44247946 0.016907133431222004 0.06232355041193666 0.9830928665687778 -0.06232355041193666 0.9830928665687778 -0.06232355041193666 0.016907133431222004 0.06232355041193666
153711330.33269328 0.017029905871582072 0.06293759460257556 0.9829700941284178 -0.06293759460257556 0.9829700941284178 -0.06293759460257556 0.017029905871582072 0.06293759460257556
155292778.13901523 0.017154389635356898 0.06355757258336944 0.982845610364643 -0.06355757258336944 0.982845610364643 -0.06355757258336944 0.017154389635356898 0.06355757258336944
156890496.5556995 0.017280615953365393 0.06418353852113713 0.9827193840466346 -0.06418353852113713 0.9827193840466346 -0.06418353852113713 0.017280615953365393 0.06418353852113713
158504652.98173362 0.017408616651827892 0.06481554698500533 0.9825913833481721 -0.06481554698500533 0.9825913833481721 -0.06481554698500533 0.017408616651827892 0.06481554698500533
160135416.53837734 0.017538424163430783 0.06545365294653474 0.9824615758365692 -0.06545365294653474 0.9824615758365692 -0.06545365294653474 0.017538424163430783 0.06545365294653474
161782958.0868822 0.017670071538580835 0.06609791177973798 0.9823299284614193 -0.06609791177973798 0.9823299284614193 -0.06609791177973798 0.017670071538580835 0.06609791177973798
163447450.24639317 0.017803592456851904 0.06674837926098488 0.9821964075431481 -0.06674837926098488 0.9821964075431481 -0.06674837926098488 0.017803592456851904 0.06674837926098488
165129067.41203484 0.017939021238626545 0.06740511156879132 0.9820609787613735 -0.06740511156879132 0.9820609787613735 -0.06740511156879132 0.017939021238626545 0.06740511156879132
166827985.77318317 0.018076392856935086 0.06806816528348647 0.9819236071430648 -0.06806816528348647 0.9819236071430648 -0.06806816528348647 0.018076392856935086 0.06806816528348647
168544383.33192575 0.01821574294949494 0.06873759738675521 0.9817842570505051 -0.06873759738675521 0.9817842570505051 -0.06873759738675521 0.01821574294949494 0.06873759738675521
170278439.9217116 0.01835710783095254 0.06941346526104973 0.9816428921690474 -0.06941346526104973 0.9816428921690474 -0.06941346526104973 0.01835710783095254 0.06941346526104973
172030337.2261931 0.018500524505330657 0.07009582668886673 0.9814994754946691 -0.07009582668886673 0.9814994754946691 -0.07009582668886673 0.018500524505330657 0.07009582668886673
173800258.7982616 0.01864603067868365 0.07078473985188463 0.9813539693213161 -0.07078473985188463 0.9813539693213161 -0.07078473985188463 0.01864603067868365 0.07078473985188463
175588390.07927907 0.018793664771963235 0.07148026332995612 0.9812063352280368 -0.07148026332995612 0.9812063352280368 -0.07148026332995612 0.018793664771963235 0.07148026332995612
177394918.41850725 0.01894346593409739 0.07218245609995065 0.9810565340659027 -0.07218245609995065 0.9810565340659027 -0.07218245609995065 0.01894346593409739 0.07218245609995065
179220033.0927372 0.019095474055284997 0.07289137753444208 0.9809045259447152 -0.07289137753444208 0.9809045259447152 -0.07289137753444208 0.019095474055284997 0.07289137753444208
181063925.3261204 0.01924972978050869 0.07360708740023524 0.9807502702194915 -0.07360708740023524 0.9807502702194915 -0.07360708740023524 0.01924972978050869 0.07360708740023524
182926788.3102041 0.019406274523268593 0.07432964585672659 0.9805937254767314 -0.07432964585672659 0.9805937254767314 -0.07432964585672659 0.019406274523268593 0.07432964585672659
184808817.22417256 0.01956515047953946 0.07505911345409269 0.9804348495204606 -0.07505911345409269 0.9804348495204606 -0.07505911345409269 0.01956515047953946 0.07505911345409269
186710209.25529698 0.019726400641953624 0.07579555113130088 0.9802735993580464 -0.07579555113130088 0.9802735993580464 -0.07579555113130088 0.019726400641953624 0.07579555113130088
188631163.61959538 0.019890068814212434 0.07653902021393597 0.9801099311857875 -0.07653902021393597 0.9801099311857875 -0.07653902021393597 0.019890068814212434 0.07653902021393597
190571881.58270517 0.020056199625728507 0.07728958241183659 0.9799438003742714 -0.07728958241183659 0.9799438003742714 -0.07728958241183659 0.020056199625728507 0.07728958241183659
192532566.48097068 0.020224838546501332 0.07804729981653519 0.9797751614534986 -0.07804729981653519 0.9797751614534986 -0.07804729981653519 0.020224838546501332 0.07804729981653519
194513423.7427473 0.020396031902228592 0.07881223489849443 0.9796039680977716 -0.07881223489849443 0.9796039680977716 -0.07881223489849443 0.020396031902228592 0.07881223489849443
196514660.90992516 0.020569826889655557 0.07958445050413389 0.9794301731103444 -0.07958445050413389 0.9794301731103444 -0.07958445050413389 0.020569826889655557 0.07958445050413389
198536487.65967387 0.020746271592165064 0.08036400985264 0.9792537284078351 -0.08036400985264 0.9792537284078351 -0.08036400985264 0.020746271592165064 0.08036400985264
200579115.82641137 0.02092541499561005 0.08115097653255124 0.9790745850043898 -0.08115097653255124 0.9790745850043898 -0.08115097653255124 0.02092541499561005 0.08115097653255124
202642759.4239985 0.021107307004391264 0.08194541449811286 0.9788926929956088 -0.08194541449811286 0.9788926929956088 -0.08194541449811286 0.021107307004391264 0.08194541449811286
204727634.66816226 0.02129199845778207 0.08274738806539204 0.9787080015422177 -0.08274738806539204 0.9787080015422177 -0.08274738806539204 0.02129199845778207 0.08274738806539204
206833959.99914914 0.021479541146502638 0.08355696190814674 0.9785204588534971 -0.08355696190814674 0.9785204588534971 -0.08355696190814674 0.021479541146502638 0.08355696190814674
208961956.10461232 0.021669987829545538 0.08437420105343985 0.9783300121704545 -0.08437420105343985 0.9783300121704545 -0.08437420105343985 0.021669987829545538 0.08437420105343985
211111845.94273368 0.0218633922512548 0.08519917087699093 0.9781366077487452 -0.08519917087699093 0.9781366077487452 -0.08519917087699093 0.0218633922512548 0.08519917087699093
213283854.7655843 0.022059809158660404 0.08603193709825678 0.9779401908413398 -0.08603193709825678 0.9779401908413398 -0.08603193709825678 0.022059809158660404 0.08603193709825678
215478210.14272448 0.02225929431906994 0.08687256577523253 0.9777407056809301 -0.08687256577523253 0.9777407056809301 -0.08687256577523253 0.02225929431906994 0.08687256577523253
217695141.98504755 0.022461904537919457 0.0877211232989646 0.9775380954620805 -0.0877211232989646 0.9775380954620805 -0.0877211232989646 0.022461904537919457 0.0877211232989646
219934882.5688682 0.022667697676884986 0.08857767638776594 0.977332302323115 -0.08857767638776594 0.977332302323115 -0.08857767638776594 0.022667697676884986 0.08857767638776594
222197666.56025904 0.02287673267225651 0.08944229208112535 0.9771232673277436 -0.08944229208112535 0.9771232673277436 -0.08944229208112535 0.02287673267225651 0.08944229208112535
224483731.03963748 0.023089069553575817 0.09031503773330027 0.9769109304464243 -0.09031503773330027 0.9769109304464243 -0.09031503773330027 0.023089069553575817 0.09031503773330027
226793315.52660546 0.023304769462539662 0.09119598100658446 0.9766952305374603 -0.09119598100658446 0.9766952305374603 -0.09119598100658446 0.023304769462539662 0.09119598100658446
229126662.00504485 0.023523894672169574 0.0920851898642397 0.9764761053278306 -0.0920851898642397 0.9764761053278306 -0.0920851898642397 0.023523894672169574 0.0920851898642397
231484014.94847116 0.02374650860624943 0.0929827325630819 0.9762534913937506 -0.0929827325630819 0.9762534913937506 -0.0929827325630819 0.02374650860624943 0.0929827325630819
233865621.34564763 0.023972675859031886 0.09388867764571102 0.976027324140968 -0.09388867764571102 0.976027324140968 -0.09388867764571102 0.023972675859031886 0.09388867764571102
236271730.7264636 0.02420246221521464 0.09480309393237442 0.9757975377847854 -0.09480309393237442 0.9757975377847854 -0.09480309393237442 0.02420246221521464 0.09480309393237442
238702595.18807822 0.024435934670187155 0.09572605051245182 0.9755640653298129 -0.09572605051245182 0.9755640653298129 -0.09572605051245182 0.024435934670187155 0.09572605051245182
241158469.42133406 0.024673161450548705 0.096657616735552 0.9753268385494513 -0.096657616735552 0.9753268385494513 -0.096657616735552 0.024673161450548705 0.096657616735552
243639610.73744175 0.024914212034897906 0.0975978622022085 0.9750857879651018 -0.0975978622022085 0.9750857879651018 -0.0975978622022085 0.024914212034897906 0.0975978622022085
246146279.0949396 0.02515915717489441 0.0985468567541636 0.9748408428251054 -0.0985468567541636 0.9748408428251054 -0.0985468567541636 0.02515915717489441 0.0985468567541636
248678737.12693024 0.02540806891659257 0.09950467046422784 0.9745919310834072 -0.09950467046422784 0.9745919310834072 -0.09950467046422784 0.02540806891659257 0.09950467046422784
251237250.16859794 0.025661020622047212 0.10047137362570324 0.974338979377953 -0.10047137362570324 0.974338979377953 -0.10047137362570324 0.025661020622047212 0.10047137362570324
253822086.2850087 0.025918086991191133 0.10144703674135724 0.9740819130088089 -0.10144703674135724 0.9740819130088089 -0.10144703674135724 0.025918086991191133 0.10144703674135724
256433516.29919615 0.026179344083984087 0.10243173051193549 0.973820655916016 -0.10243173051193549 0.973820655916016 -0.10243173051193549 0.026179344083984087 0.10243173051193549
259071813.82053724 0.02644486934283226 0.10342552582419867 0.9735551306571677 -0.10342552582419867 0.9735551306571677 -0.10342552582419867 0.02644486934283226 0.10342552582419867
261737255.27341878 0.026714741615277614 0.10442849373847142 0.9732852583847224 -0.10442849373847142 0.9732852583847224 -0.10442849373847142 0.026714741615277614 0.10442849373847142
264430119.92619988 0.0269890411769559 0.10544070547568922 0.9730109588230443 -0.10544070547568922 0.9730109588230443 -0.10544070547568922 0.0269890411769559 0.10544070547568922
267150689.9204718 0.027267849754821768 0.10646223240392848 0.972732150245178 -0.10646223240392848 0.972732150245178 -0.10646223240392848 0.027267849754821768 0.10646223240392848
269899250.3006187 0.027551250550639686 0.10749314602440677 0.9724487494493603 -0.10749314602440677 0.9724487494493603 -0.10749314602440677 0.027551250550639686 0.10749314602440677
272676089.04368347 0.02783932826473829 0.10853351795693729 0.9721606717352614 -0.10853351795693729 0.9721606717352614 -0.10853351795693729 0.02783932826473829 0.10853351795693729
275481497.0895395 0.028132169120026324 0.10958341992482339 0.9718678308799737 -0.10958341992482339 0.9718678308799737 -0.10958341992482339 0.028132169120026324 0.10958341992482339
278315768.371374 0.028429860886267526 0.11064292373917775 0.9715701391137324 -0.11064292373917775 0.9715701391137324 -0.11064292373917775 0.028429860886267526 0.11064292373917775
281179199.84648436 0.028732492904611516 0.11171210128265044 0.9712675070953882 -0.11171210128265044 0.9712675070953882 -0.11171210128265044 0.028732492904611516 0.11171210128265044
284072091.52739125 0.029040156112377688 0.1127910244925501 0.9709598438876225 -0.1127910244925501 0.9709598438876225 -0.1127910244925501 0.029040156112377688 0.1127910244925501
286994746.51327246 0.029352943068088486 0.11387976534334177 0.9706470569319113 -0.11387976534334177 0.9706470569319113 -0.11387976534334177 0.029352943068088486 0.11387976534334177
289947471.02171946 0.02967094797674829 0.1149783958285055 0.9703290520232517 -0.1149783958285055 0.9703290520232517 -0.1149783958285055 0.02967094797674829 0.1149783958285055
292930574.4208211 0.02999426671536356 0.11608698794173797 0.9700057332846365 -0.11608698794173797 0.9700057332846365 -0.11608698794173797 0.02999426671536356 0.11608698794173797
295944369.2615772 0.030322996858699616 0.11720561365748046 0.9696770031413005 -0.11720561365748046 0.9696770031413005 -0.11720561365748046 0.030322996858699616 0.11720561365748046
298989171.3106458 0.030657237705269118 0.11833434491075578 0.9693427622947309 -0.11833434491075578 0.9693427622947309 -0.11833434491075578 0.030657237705269118 0.11833434491075578
302065299.58342713 0.030997090303546596 0.11947325357629561 0.9690029096964533 -0.11947325357629561 0.9690029096964533 -0.11947325357629561 0.030997090303546596 0.11947325357629561
