!Murata Part Number: LQP02TN4N7S02
!These Parameters are Measured in Series Mode Connection
!       o--[+]--o
!Port1              Port2
!       o-------o
!Freq. Start=100[MHz] Stop=6[GHz], 401[Steps]
# Hz S RI R 50
!Freq.(Hz)	S 11(Real)	S 11(Imag)	S 21(Real)	S 21(Imag)	S 12(Real)	S 12(Imag)	S 22(Real)	S 22(Imag)	
100000000 0.008903687292436393 0.030150332219727214 0.9910963127075635 -0.030150332219727214 0.9910963127075635 -0.030150332219727214 0.008903687292436393 0.030150332219727214
101028842.70333165 0.008947320303477647 0.030448559833931934 0.9910526796965226 -0.030448559833931934 0.9910526796965226 -0.030448559833931934 0.008947320303477647 0.030448559833931934
102068270.57974531 0.008991397096740152 0.030749721596952072 0.9910086029032599 -0.030749721596952072 0.9910086029032599 -0.030749721596952072 0.008991397096740152 0.030749721596952072
103118392.53402182 0.009035925145185203 0.031053845988714756 0.9909640748548147 -0.031053845988714756 0.9909640748548147 -0.031053845988714756 0.009035925145185203 0.031053845988714756
104179318.591401 0.00908091206532381 0.03136096175500928 0.9909190879346761 -0.03136096175500928 0.9909190879346761 -0.03136096175500928 0.00908091206532381 0.03136096175500928
105251159.90910926 0.009126365620017915 0.0316710979096623 0.990873634379982 -0.0316710979096623 0.990873634379982 -0.0316710979096623 0.009126365620017915 0.0316710979096623
106334028.78800607 0.00917229372133565 0.03198428373672157 0.9908277062786646 -0.03198428373672157 0.9908277062786646 -0.03198428373672157 0.00917229372133565 0.03198428373672157
107428038.68435004 0.009218704433461566 0.032300548792647765 0.9907812955665385 -0.032300548792647765 0.9907812955665385 -0.032300548792647765 0.009218704433461566 0.032300548792647765
108533304.2216863 0.009265605975662845 0.03261992290851396 0.9907343940243372 -0.03261992290851396 0.9907343940243372 -0.03261992290851396 0.009265605975662845 0.03261992290851396
109649941.20285586 0.009313006725312632 0.03294243619221267 0.9906869932746872 -0.03294243619221267 0.9906869932746872 -0.03294243619221267 0.009313006725312632 0.03294243619221267
110778066.62212887 0.009360915220971386 0.0332681190306699 0.9906390847790285 -0.0332681190306699 0.9906390847790285 -0.0332681190306699 0.009360915220971386 0.0332681190306699
111917798.67746255 0.009409340165527531 0.03359700209206609 0.9905906598344724 -0.03359700209206609 0.9905906598344724 -0.03359700209206609 0.009409340165527531 0.03359700209206609
113069256.78288502 0.00945829042939828 0.03392911632806317 0.9905417095706017 -0.03392911632806317 0.9905417095706017 -0.03392911632806317 0.00945829042939828 0.03392911632806317
114232561.58100708 0.009507775053791946 0.03426449297603795 0.990492224946208 -0.03426449297603795 0.990492224946208 -0.03426449297603795 0.009507775053791946 0.03426449297603795
115407834.95566209 0.009557803254032727 0.034603163561320746 0.9904421967459672 -0.034603163561320746 0.9904421967459672 -0.034603163561320746 0.009557803254032727 0.034603163561320746
116595200.04467647 0.009608384422949196 0.03494515989943941 0.9903916155770509 -0.03494515989943941 0.9903916155770509 -0.03494515989943941 0.009608384422949196 0.03494515989943941
117794781.25277108 0.009659528134327652 0.03529051409836792 0.9903404718656724 -0.03529051409836792 0.9903404718656724 -0.03529051409836792 0.009659528134327652 0.03529051409836792
119006704.2645957 0.009711244146431494 0.0356392585607793 0.9902887558535686 -0.0356392585607793 0.9902887558535686 -0.0356392585607793 0.009711244146431494 0.0356392585607793
120231096.05789746 0.009763542405587862 0.03599142598630228 0.9902364575944121 -0.03599142598630228 0.9902364575944121 -0.03599142598630228 0.009763542405587862 0.03599142598630228
121468084.91682482 0.009816433049842756 0.03634704937378127 0.9901835669501572 -0.03634704937378127 0.9901835669501572 -0.03634704937378127 0.009816433049842756 0.03634704937378127
122717800.44536826 0.009869926412685902 0.036706162023538984 0.9901300735873141 -0.036706162023538984 0.9901300735873141 -0.036706162023538984 0.009869926412685902 0.036706162023538984
123980373.58093955 0.009924033026846612 0.03706879753964147 0.9900759669731534 -0.03706879753964147 0.9900759669731534 -0.03706879753964147 0.009924033026846612 0.03706879753964147
125255936.60809036 0.009978763628161934 0.03743498983216454 0.990021236371838 -0.03743498983216454 0.990021236371838 -0.03743498983216454 0.009978763628161934 0.03743498983216454
126544623.17237243 0.010034129159518434 0.03780477311946147 0.9899658708404815 -0.03780477311946147 0.9899658708404815 -0.03780477311946147 0.010034129159518434 0.03780477311946147
127846568.29433991 0.010090140774868922 0.03817818193043112 0.9899098592251311 -0.03817818193043112 0.9899098592251311 -0.03817818193043112 0.010090140774868922 0.03817818193043112
129161908.38369614 0.010146809843325433 0.038555251106785746 0.9898531901566746 -0.038555251106785746 0.9898531901566746 -0.038555251106785746 0.010146809843325433 0.038555251106785746
130490781.25358573 0.010204147953329962 0.03893601580531822 0.98979585204667 -0.03893601580531822 0.98979585204667 -0.03893601580531822 0.010204147953329962 0.03893601580531822
131833326.13503371 0.010262166916904195 0.039320511500167486 0.9897378330830957 -0.039320511500167486 0.9897378330830957 -0.039320511500167486 0.010262166916904195 0.039320511500167486
133189683.69153343 0.010320878773979799 0.03970877398508204 0.9896791212260204 -0.03970877398508204 0.9896791212260204 -0.03970877398508204 0.010320878773979799 0.03970877398508204
134559996.03378427 0.01038029579681062 0.04010083937568025 0.9896197042031891 -0.04010083937568025 0.9896197042031891 -0.04010083937568025 0.01038029579681062 0.04010083937568025
135944406.73458123 0.010440430494468304 0.0404967441117072 0.9895595695055318 -0.0404967441117072 0.9895595695055318 -0.0404967441117072 0.010440430494468304 0.0404967441117072
137343060.84385747 0.010501295617422765 0.04089652495928671 0.9894987043825773 -0.04089652495928671 0.9894987043825773 -0.04089652495928671 0.010501295617422765 0.04089652495928671
138756104.90388185 0.01056290416220916 0.04130021901316848 0.9894370958377907 -0.04130021901316848 0.9894370958377907 -0.04130021901316848 0.01056290416220916 0.04130021901316848
140183686.96461266 0.010625269376182708 0.04170786369896859 0.9893747306238173 -0.04170786369896859 0.9893747306238173 -0.04170786369896859 0.010625269376182708 0.04170786369896859
141625956.59920937 0.010688404762363041 0.04211949677540335 0.9893115952376369 -0.04211949677540335 0.9893115952376369 -0.04211949677540335 0.010688404762363041 0.04211949677540335
143083064.919704 0.010752324084369665 0.04253515633651501 0.9892476759156306 -0.04253515633651501 0.9892476759156306 -0.04253515633651501 0.010752324084369665 0.04253515633651501
144555164.59283367 0.010817041371450056 0.04295488081388843 0.98918295862855 -0.04295488081388843 0.98918295862855 -0.04295488081388843 0.010817041371450056 0.04295488081388843
146042409.8560361 0.010882570923602142 0.04337870897885832 0.9891174290763977 -0.04337870897885832 0.9891174290763977 -0.04337870897885832 0.010882570923602142 0.04337870897885832
147544956.53360963 0.010948927316792692 0.043806679944705156 0.9890510726832076 -0.043806679944705156 0.9890510726832076 -0.043806679944705156 0.010948927316792692 0.043806679944705156
149062962.05303955 0.01101612540827334 0.04423883316883916 0.9889838745917265 -0.04423883316883916 0.9889838745917265 -0.04423883316883916 0.01101612540827334 0.04423883316883916
150596585.46149227 0.011084180341996071 0.0446752084549717 0.9889158196580039 -0.0446752084549717 0.9889158196580039 -0.0446752084549717 0.011084180341996071 0.0446752084549717
152145987.44247946 0.011153107554129649 0.045115845955272 0.9888468924458704 -0.045115845955272 0.9888468924458704 -0.045115845955272 0.011153107554129649 0.045115845955272
153711330.33269328 0.011222922778678927 0.04556078617250881 0.9887770772213211 -0.04556078617250881 0.9887770772213211 -0.04556078617250881 0.011222922778678927 0.04556078617250881
155292778.13901523 0.011293642053208814 0.046010069962175694 0.9887063579467911 -0.046010069962175694 0.9887063579467911 -0.046010069962175694 0.011293642053208814 0.046010069962175694
156890496.5556995 0.011365281724674558 0.04646373853459814 0.9886347182753256 -0.04646373853459814 0.9886347182753256 -0.04646373853459814 0.011365281724674558 0.04646373853459814
158504652.98173362 0.011437858455360272 0.04692183345702198 0.9885621415446396 -0.04692183345702198 0.9885621415446396 -0.04692183345702198 0.011437858455360272 0.04692183345702198
160135416.53837734 0.011511389228927627 0.04738439665568132 0.9884886107710724 -0.04738439665568132 0.9884886107710724 -0.04738439665568132 0.011511389228927627 0.04738439665568132
161782958.0868822 0.011585891356576398 0.04785147041784469 0.9884141086434235 -0.04785147041784469 0.9884141086434235 -0.04785147041784469 0.011585891356576398 0.04785147041784469
163447450.24639317 0.011661382483318904 0.04832309739383795 0.988338617516681 -0.04832309739383795 0.988338617516681 -0.04832309739383795 0.011661382483318904 0.04832309739383795
165129067.41203484 0.011737880594370254 0.04879932059904272 0.9882621194056298 -0.04879932059904272 0.9882621194056298 -0.04879932059904272 0.011737880594370254 0.04879932059904272
166827985.77318317 0.011815404021656314 0.04928018341586845 0.9881845959783436 -0.04928018341586845 0.9881845959783436 -0.04928018341586845 0.011815404021656314 0.04928018341586845
168544383.33192575 0.011893971450441337 0.04976572959569683 0.9881060285495588 -0.04976572959569683 0.9881060285495588 -0.04976572959569683 0.011893971450441337 0.04976572959569683
170278439.9217116 0.011973601926077401 0.05025600326079683 0.9880263980739228 -0.05025600326079683 0.9880263980739228 -0.05025600326079683 0.011973601926077401 0.05025600326079683
172030337.2261931 0.012054314860877494 0.05075104890620872 0.9879456851391226 -0.05075104890620872 0.9879456851391226 -0.05075104890620872 0.012054314860877494 0.05075104890620872
173800258.7982616 0.012136130041114449 0.05125091140159522 0.9878638699588859 -0.05125091140159522 0.9878638699588859 -0.05125091140159522 0.012136130041114449 0.05125091140159522
175588390.07927907 0.012219067634147712 0.05175563599305816 0.9877809323658524 -0.05175563599305816 0.9877809323658524 -0.05175563599305816 0.012219067634147712 0.05175563599305816
177394918.41850725 0.012303148195680094 0.05226526830491868 0.9876968518043199 -0.05226526830491868 0.9876968518043199 -0.05226526830491868 0.012303148195680094 0.05226526830491868
179220033.0927372 0.012388392677146622 0.052779854341459244 0.9876116073228532 -0.052779854341459244 0.9876116073228532 -0.052779854341459244 0.012388392677146622 0.052779854341459244
181063925.3261204 0.012474822433237623 0.05329944048862509 0.9875251775667625 -0.05329944048862509 0.9875251775667625 -0.05329944048862509 0.012474822433237623 0.05329944048862509
182926788.3102041 0.01256245922955824 0.05382407351568369 0.9874375407704419 -0.05382407351568369 0.9874375407704419 -0.05382407351568369 0.01256245922955824 0.05382407351568369
184808817.22417256 0.012651325250426544 0.05435380057683946 0.9873486747495732 -0.05435380057683946 0.9873486747495732 -0.05435380057683946 0.012651325250426544 0.05435380057683946
186710209.25529698 0.012741443106812547 0.05488866921280226 0.9872585568931876 -0.05488866921280226 0.9872585568931876 -0.05488866921280226 0.012741443106812547 0.05488866921280226
188631163.61959538 0.012832835844420219 0.05542872735230674 0.9871671641555798 -0.05542872735230674 0.9871671641555798 -0.05542872735230674 0.012832835844420219 0.05542872735230674
190571881.58270517 0.012925526951914951 0.05597402331358079 0.9870744730480852 -0.05597402331358079 0.9870744730480852 -0.05597402331358079 0.012925526951914951 0.05597402331358079
192532566.48097068 0.013019540369298605 0.0565246058057604 0.9869804596307014 -0.0565246058057604 0.9869804596307014 -0.0565246058057604 0.013019540369298605 0.0565246058057604
194513423.7427473 0.013114900496434581 0.057080523930248594 0.9868850995035653 -0.057080523930248594 0.9868850995035653 -0.057080523930248594 0.013114900496434581 0.057080523930248594
196514660.90992516 0.01321163220172515 0.05764182718201601 0.9867883677982747 -0.05764182718201601 0.9867883677982747 -0.05764182718201601 0.01321163220172515 0.05764182718201601
198536487.65967387 0.013309760830943491 0.05820856545084029 0.9866902391690563 -0.05820856545084029 0.9866902391690563 -0.05820856545084029 0.013309760830943491 0.05820856545084029
200579115.82641137 0.013409312216222742 0.05878078902248167 0.9865906877837773 -0.05878078902248167 0.9865906877837773 -0.05878078902248167 0.013409312216222742 0.05878078902248167
202642759.4239985 0.013510312685204511 0.059358548579792225 0.9864896873147954 -0.059358548579792225 0.9864896873147954 -0.059358548579792225 0.013510312685204511 0.059358548579792225
204727634.66816226 0.013612789070349306 0.059941895203755736 0.9863872109296509 -0.059941895203755736 0.9863872109296509 -0.059941895203755736 0.013612789070349306 0.059941895203755736
206833959.99914914 0.01371676871841114 0.06053088037445498 0.9862832312815888 -0.06053088037445498 0.9862832312815888 -0.06053088037445498 0.01371676871841114 0.06053088037445498
208961956.10461232 0.013822279500079082 0.061125555971963993 0.9861777204999207 -0.061125555971963993 0.9861777204999207 -0.061125555971963993 0.013822279500079082 0.061125555971963993
211111845.94273368 0.013929349819787919 0.06172597427716174 0.9860706501802121 -0.06172597427716174 0.9860706501802121 -0.06172597427716174 0.013929349819787919 0.06172597427716174
213283854.7655843 0.014038008625700638 0.06233218797246409 0.9859619913742993 -0.06233218797246409 0.9859619913742993 -0.06233218797246409 0.014038008625700638 0.06233218797246409
215478210.14272448 0.0141482854198651 0.06294425014247082 0.9858517145801349 -0.06294425014247082 0.9858517145801349 -0.06294425014247082 0.0141482854198651 0.06294425014247082
217695141.98504755 0.014260210268547572 0.06356221427452434 0.9857397897314523 -0.06356221427452434 0.9857397897314523 -0.06356221427452434 0.014260210268547572 0.06356221427452434
219934882.5688682 0.014373813812745486 0.06418613425917623 0.9856261861872546 -0.06418613425917623 0.9856261861872546 -0.06418613425917623 0.014373813812745486 0.06418613425917623
222197666.56025904 0.014489127278882158 0.06481606439055848 0.985510872721118 -0.06481606439055848 0.985510872721118 -0.06481606439055848 0.014489127278882158 0.06481606439055848
224483731.03963748 0.014606182489685888 0.06545205936665546 0.9853938175103142 -0.06545205936665546 0.9853938175103142 -0.06545205936665546 0.014606182489685888 0.06545205936665546
226793315.52660546 0.014725011875256126 0.06609417428947277 0.9852749881247437 -0.06609417428947277 0.9852749881247437 -0.06609417428947277 0.014725011875256126 0.06609417428947277
229126662.00504485 0.014845648484319173 0.0667424646650988 0.9851543515156809 -0.0667424646650988 0.9851543515156809 -0.0667424646650988 0.014845648484319173 0.0667424646650988
231484014.94847116 0.01496812599567619 0.06739698640365571 0.9850318740043239 -0.06739698640365571 0.9850318740043239 -0.06739698640365571 0.01496812599567619 0.06739698640365571
233865621.34564763 0.015092478729845867 0.0680577958191346 0.9849075212701541 -0.0680577958191346 0.9849075212701541 -0.0680577958191346 0.015092478729845867 0.0680577958191346
236271730.7264636 0.015218741660904683 0.06872494962911142 0.9847812583390951 -0.06872494962911142 0.9847812583390951 -0.06872494962911142 0.015218741660904683 0.06872494962911142
238702595.18807822 0.015346950428527007 0.06939850495433886 0.9846530495714729 -0.06939850495433886 0.9846530495714729 -0.06939850495433886 0.015346950428527007 0.06939850495433886
241158469.42133406 0.015477141350227963 0.07007851931820928 0.9845228586497721 -0.07007851931820928 0.9845228586497721 -0.07007851931820928 0.015477141350227963 0.07007851931820928
243639610.73744175 0.015609351433811477 0.07076505064608493 0.9843906485661886 -0.07076505064608493 0.9843906485661886 -0.07076505064608493 0.015609351433811477 0.07076505064608493
246146279.0949396 0.015743618390026266 0.07145815726448985 0.9842563816099738 -0.07145815726448985 0.9842563816099738 -0.07145815726448985 0.015743618390026266 0.07145815726448985
248678737.12693024 0.015879980645432196 0.0721578979001585 0.9841200193545679 -0.0721578979001585 0.9841200193545679 -0.0721578979001585 0.015879980645432196 0.0721578979001585
251237250.16859794 0.0160184773554798 0.07286433167893665 0.9839815226445201 -0.07286433167893665 0.9839815226445201 -0.07286433167893665 0.0160184773554798 0.07286433167893665
253822086.2850087 0.016159148417805465 0.07357751812452869 0.9838408515821947 -0.07357751812452869 0.9838408515821947 -0.07357751812452869 0.016159148417805465 0.07357751812452869
256433516.29919615 0.01630203448574482 0.07429751715708616 0.9836979655142549 -0.07429751715708616 0.9836979655142549 -0.07429751715708616 0.01630203448574482 0.07429751715708616
259071813.82053724 0.016447176982067047 0.07502438909163216 0.9835528230179327 -0.07502438909163216 0.9835528230179327 -0.07502438909163216 0.016447176982067047 0.07502438909163216
261737255.27341878 0.01659461811293251 0.07575819463631546 0.9834053818870676 -0.07575819463631546 0.9834053818870676 -0.07575819463631546 0.01659461811293251 0.07575819463631546
264430119.92619988 0.01674440088207635 0.07649899489048903 0.9832555991179236 -0.07649899489048903 0.9832555991179236 -0.07649899489048903 0.01674440088207635 0.07649899489048903
267150689.9204718 0.016896569105220555 0.07724685134260664 0.9831034308947795 -0.07724685134260664 0.9831034308947795 -0.07724685134260664 0.016896569105220555 0.07724685134260664
269899250.3006187 0.01705116742471694 0.07800182586793136 0.982948832575283 -0.07800182586793136 0.982948832575283 -0.07800182586793136 0.01705116742471694 0.07800182586793136
272676089.04368347 0.017208241324423584 0.07876398072604975 0.9827917586755764 -0.07876398072604975 0.9827917586755764 -0.07876398072604975 0.017208241324423584 0.07876398072604975
275481497.0895395 0.01736783714481711 0.07953337855818512 0.982632162855183 -0.07953337855818512 0.982632162855183 -0.07953337855818512 0.01736783714481711 0.07953337855818512
278315768.371374 0.01753000209834322 0.08031008238430312 0.9824699979016568 -0.08031008238430312 0.9824699979016568 -0.08031008238430312 0.01753000209834322 0.08031008238430312
281179199.84648436 0.01769478428500789 0.08109415560000302 0.9823052157149921 -0.08109415560000302 0.9823052157149921 -0.08109415560000302 0.01769478428500789 0.08109415560000302
284072091.52739125 0.017862232708211568 0.08188566197318738 0.9821377672917884 -0.08188566197318738 0.9821377672917884 -0.08188566197318738 0.017862232708211568 0.08188566197318738
286994746.51327246 0.018032397290828502 0.08268466564050278 0.9819676027091716 -0.08268466564050278 0.9819676027091716 -0.08268466564050278 0.018032397290828502 0.08268466564050278
289947471.02171946 0.018205328891533656 0.08349123110354463 0.9817946711084664 -0.08349123110354463 0.9817946711084664 -0.08349123110354463 0.018205328891533656 0.08349123110354463
292930574.4208211 0.0183810793213793 0.08430542322481781 0.9816189206786204 -0.08430542322481781 0.9816189206786204 -0.08430542322481781 0.0183810793213793 0.08430542322481781
295944369.2615772 0.018559701360623352 0.0851273072234461 0.981440298639377 -0.0851273072234461 0.981440298639377 -0.0851273072234461 0.018559701360623352 0.0851273072234461
298989171.3106458 0.01874124877581148 0.08595694867062088 0.9812587512241885 -0.08595694867062088 0.9812587512241885 -0.08595694867062088 0.01874124877581148 0.08595694867062088
