!Murata Part Number: LQP02TN5N6S02
!These Parameters are Measured in Series Mode Connection
!       o--[+]--o
!Port1              Port2
!       o-------o
!Freq. Start=100[MHz] Stop=6[GHz], 401[Steps]
# Hz S RI R 50
!Freq.(Hz)	S 11(Real)	S 11(Imag)	S 21(Real)	S 21(Imag)	S 12(Real)	S 12(Imag)	S 22(Real)	S 22(Imag)	
100000000 0.010634995416075784 0.036143498485418236 0.9893650045839245 -0.036143498485418236 0.9893650045839245 -0.036143498485418236 0.010634995416075784 0.036143498485418236
101028842.70333165 0.010697321958525612 0.03649696979203244 0.9893026780414742 -0.03649696979203244 0.9893026780414742 -0.03649696979203244 0.010697321958525612 0.03649696979203244
102068270.57974531 0.010760301683733221 0.03685386989176369 0.9892396983162668 -0.03685386989176369 0.9892396983162668 -0.03685386989176369 0.010760301683733221 0.03685386989176369
103118392.53402182 0.01082394519066592 0.03721423137945024 0.9891760548093342 -0.03721423137945024 0.9891760548093342 -0.03721423137945024 0.01082394519066592 0.03721423137945024
104179318.591401 0.010888263276484204 0.03757808714224527 0.9891117367235157 -0.03757808714224527 0.9891117367235157 -0.03757808714224527 0.010888263276484204 0.03757808714224527
105251159.90910926 0.010953266940329174 0.03794547036174071 0.9890467330596708 -0.03794547036174071 0.9890467330596708 -0.03794547036174071 0.010953266940329174 0.03794547036174071
106334028.78800607 0.011018967387181201 0.038316414516091 0.9889810326128189 -0.038316414516091 0.9889810326128189 -0.038316414516091 0.011018967387181201 0.038316414516091
107428038.68435004 0.011085376031791057 0.038690953382136635 0.988914623968209 -0.038690953382136635 0.988914623968209 -0.038690953382136635 0.011085376031791057 0.038690953382136635
108533304.2216863 0.011152504502684856 0.03906912103752648 0.9888474954973151 -0.03906912103752648 0.9888474954973151 -0.03906912103752648 0.011152504502684856 0.03906912103752648
109649941.20285586 0.01122036464624408 0.039450951862838465 0.988779635353756 -0.039450951862838465 0.988779635353756 -0.039450951862838465 0.01122036464624408 0.039450951862838465
110778066.62212887 0.011288968530862066 0.03983648054369795 0.9887110314691379 -0.03983648054369795 0.9887110314691379 -0.03983648054369795 0.011288968530862066 0.03983648054369795
111917798.67746255 0.01135832845117828 0.04022574207289297 0.9886416715488218 -0.04022574207289297 0.9886416715488218 -0.04022574207289297 0.01135832845117828 0.04022574207289297
113069256.78288502 0.011428456932391771 0.040618771752485794 0.9885715430676083 -0.040618771752485794 0.9885715430676083 -0.040618771752485794 0.011428456932391771 0.040618771752485794
114232561.58100708 0.011499366734655249 0.041015605195920145 0.9885006332653449 -0.041015605195920145 0.9885006332653449 -0.041015605195920145 0.011499366734655249 0.041015605195920145
115407834.95566209 0.01157107085755114 0.041416278330123034 0.9884289291424491 -0.041416278330123034 0.9884289291424491 -0.041416278330123034 0.01157107085755114 0.041416278330123034
116595200.04467647 0.011643582544651124 0.04182082739760073 0.9883564174553489 -0.04182082739760073 0.9883564174553489 -0.04182082739760073 0.011643582544651124 0.04182082739760073
117794781.25277108 0.011716915288160594 0.04222928895852797 0.9882830847118392 -0.04222928895852797 0.9882830847118392 -0.04222928895852797 0.011716915288160594 0.04222928895852797
119006704.2645957 0.011791082833649527 0.0426416998928294 0.9882089171663503 -0.0426416998928294 0.9882089171663503 -0.0426416998928294 0.011791082833649527 0.0426416998928294
120231096.05789746 0.011866099184871302 0.0430580974022526 0.9881339008151288 -0.0430580974022526 0.9881339008151288 -0.0430580974022526 0.011866099184871302 0.0430580974022526
121468084.91682482 0.011941978608671005 0.04347851901243186 0.9880580213913291 -0.04347851901243186 0.9880580213913291 -0.04347851901243186 0.011941978608671005 0.04347851901243186
122717800.44536826 0.012018735639984708 0.0439030025749413 0.9879812643600153 -0.0439030025749413 0.9879812643600153 -0.0439030025749413 0.012018735639984708 0.0439030025749413
123980373.58093955 0.012096385086931455 0.04433158626933713 0.9879036149130687 -0.04433158626933713 0.9879036149130687 -0.04433158626933713 0.012096385086931455 0.04433158626933713
125255936.60809036 0.012174942035999343 0.044764308605187215 0.9878250579640004 -0.044764308605187215 0.9878250579640004 -0.044764308605187215 0.012174942035999343 0.044764308605187215
126544623.17237243 0.01225442185732758 0.04520120842408773 0.9877455781426725 -0.04520120842408773 0.9877455781426725 -0.04520120842408773 0.01225442185732758 0.04520120842408773
127846568.29433991 0.01233484021008593 0.04564232490166509 0.987665159789914 -0.04564232490166509 0.987665159789914 -0.04564232490166509 0.01233484021008593 0.04564232490166509
129161908.38369614 0.012416213047953423 0.04608769754956276 0.9875837869520467 -0.04608769754956276 0.9875837869520467 -0.04608769754956276 0.012416213047953423 0.04608769754956276
130490781.25358573 0.012498556624697874 0.04653736621741111 0.987501443375302 -0.04653736621741111 0.987501443375302 -0.04653736621741111 0.012498556624697874 0.04653736621741111
131833326.13503371 0.01258188749985804 0.04699137109477982 0.9874181125001419 -0.04699137109477982 0.9874181125001419 -0.04699137109477982 0.01258188749985804 0.04699137109477982
133189683.69153343 0.012666222544530127 0.047449752713111096 0.98733377745547 -0.047449752713111096 0.98733377745547 -0.047449752713111096 0.012666222544530127 0.047449752713111096
134559996.03378427 0.01275157894726037 0.047912551947632644 0.9872484210527397 -0.047912551947632644 0.9872484210527397 -0.047912551947632644 0.01275157894726037 0.047912551947632644
135944406.73458123 0.012837974220045595 0.0483798100192492 0.9871620257799544 -0.0483798100192492 0.9871620257799544 -0.0483798100192492 0.012837974220045595 0.0483798100192492
137343060.84385747 0.01292542620444345 0.04885156849641105 0.9870745737955563 -0.04885156849641105 0.9870745737955563 -0.04885156849641105 0.01292542620444345 0.04885156849641105
138756104.90388185 0.01301395307779429 0.04932786929695842 0.9869860469222058 -0.04932786929695842 0.9869860469222058 -0.04932786929695842 0.01301395307779429 0.04932786929695842
140183686.96461266 0.013103573359556411 0.049808754689939935 0.9868964266404436 -0.049808754689939935 0.9868964266404436 -0.049808754689939935 0.013103573359556411 0.049808754689939935
141625956.59920937 0.013194305917756733 0.05029426729740422 0.9868056940822434 -0.05029426729740422 0.9868056940822434 -0.05029426729740422 0.013194305917756733 0.05029426729740422
143083064.919704 0.013286169975558685 0.050784450096162476 0.9867138300244415 -0.050784450096162476 0.9867138300244415 -0.050784450096162476 0.013286169975558685 0.050784450096162476
144555164.59283367 0.013379185117949275 0.05127934641952097 0.9866208148820508 -0.05127934641952097 0.9866208148820508 -0.05127934641952097 0.013379185117949275 0.05127934641952097
146042409.8560361 0.013473371298547388 0.0517789999589816 0.9865266287014527 -0.0517789999589816 0.9865266287014527 -0.0517789999589816 0.013473371298547388 0.0517789999589816
147544956.53360963 0.013568748846535209 0.052283454765908774 0.986431251153465 -0.052283454765908774 0.986431251153465 -0.052283454765908774 0.013568748846535209 0.052283454765908774
149062962.05303955 0.013665338473714796 0.052792755253161044 0.9863346615262854 -0.052792755253161044 0.9863346615262854 -0.052792755253161044 0.013665338473714796 0.052792755253161044
150596585.46149227 0.013763161281691937 0.05330694619668571 0.9862368387183084 -0.05330694619668571 0.9862368387183084 -0.05330694619668571 0.013763161281691937 0.05330694619668571
152145987.44247946 0.013862238769189223 0.05382607273707432 0.9861377612308109 -0.05382607273707432 0.9861377612308109 -0.05382607273707432 0.013862238769189223 0.05382607273707432
153711330.33269328 0.01396259283949052 0.05435018038107746 0.9860374071605096 -0.05435018038107746 0.9860374071605096 -0.05435018038107746 0.01396259283949052 0.05435018038107746
155292778.13901523 0.014064245808018896 0.05487931500307663 0.9859357541919811 -0.05487931500307663 0.9859357541919811 -0.05487931500307663 0.014064245808018896 0.05487931500307663
156890496.5556995 0.014167220410050196 0.05541352284651136 0.98583277958995 -0.05541352284651136 0.98583277958995 -0.05541352284651136 0.014167220410050196 0.05541352284651136
158504652.98173362 0.014271539808564354 0.0559528505252594 0.9857284601914356 -0.0559528505252594 0.9857284601914356 -0.0559528505252594 0.014271539808564354 0.0559528505252594
160135416.53837734 0.014377227602236684 0.056497345024967845 0.9856227723977633 -0.056497345024967845 0.9856227723977633 -0.056497345024967845 0.014377227602236684 0.056497345024967845
161782958.0868822 0.014484307833571316 0.05704705370433293 0.9855156921664289 -0.05704705370433293 0.9855156921664289 -0.05704705370433293 0.014484307833571316 0.05704705370433293
163447450.24639317 0.014592804997179002 0.057602024296326174 0.9854071950028209 -0.057602024296326174 0.9854071950028209 -0.057602024296326174 0.014592804997179002 0.057602024296326174
165129067.41203484 0.014702744048201643 0.058162304909365005 0.9852972559517984 -0.058162304909365005 0.9852972559517984 -0.058162304909365005 0.014702744048201643 0.058162304909365005
166827985.77318317 0.014814150410885569 0.058727944028424316 0.9851858495891144 -0.058727944028424316 0.9851858495891144 -0.058727944028424316 0.014814150410885569 0.058727944028424316
168544383.33192575 0.014927049987306209 0.059298990516087925 0.9850729500126937 -0.059298990516087925 0.9850729500126937 -0.059298990516087925 0.014927049987306209 0.059298990516087925
170278439.9217116 0.015041469166246112 0.059875493613535974 0.9849585308337538 -0.059875493613535974 0.9849585308337538 -0.059875493613535974 0.015041469166246112 0.059875493613535974
172030337.2261931 0.015157434832228952 0.06045750294146669 0.984842565167771 -0.06045750294146669 0.984842565167771 -0.06045750294146669 0.015157434832228952 0.06045750294146669
173800258.7982616 0.015274974374711623 0.061045068500948964 0.9847250256252883 -0.061045068500948964 0.9847250256252883 -0.061045068500948964 0.015274974374711623 0.061045068500948964
175588390.07927907 0.015394115697437052 0.06163824067420357 0.9846058843025631 -0.06163824067420357 0.9846058843025631 -0.06163824067420357 0.015394115697437052 0.06163824067420357
177394918.41850725 0.015514887227949864 0.06223707022530955 0.9844851127720501 -0.06223707022530955 0.9844851127720501 -0.06223707022530955 0.015514887227949864 0.06223707022530955
179220033.0927372 0.01563731792727753 0.06284160830083331 0.9843626820727226 -0.06284160830083331 0.9843626820727226 -0.06284160830083331 0.01563731792727753 0.06284160830083331
181063925.3261204 0.0157614372997793 0.06345190643037688 0.9842385627002207 -0.06345190643037688 0.9842385627002207 -0.06345190643037688 0.0157614372997793 0.06345190643037688
182926788.3102041 0.01588727540316541 0.06406801652704255 0.9841127245968346 -0.06406801652704255 0.9841127245968346 -0.06406801652704255 0.01588727540316541 0.06406801652704255
184808817.22417256 0.016014862858689045 0.06468999088781029 0.9839851371413109 -0.06468999088781029 0.9839851371413109 -0.06468999088781029 0.016014862858689045 0.06468999088781029
186710209.25529698 0.01614423086151348 0.06531788219382485 0.9838557691384866 -0.06531788219382485 0.9838557691384866 -0.06531788219382485 0.01614423086151348 0.06531788219382485
188631163.61959538 0.016275411191256993 0.06595174351058898 0.9837245888087432 -0.06595174351058898 0.9837245888087432 -0.06595174351058898 0.016275411191256993 0.06595174351058898
190571881.58270517 0.01640843622271791 0.0665916282880591 0.983591563777282 -0.0665916282880591 0.983591563777282 -0.0665916282880591 0.01640843622271791 0.0665916282880591
192532566.48097068 0.016543338936782497 0.06723759036064016 0.9834566610632176 -0.06723759036064016 0.9834566610632176 -0.06723759036064016 0.016543338936782497 0.06723759036064016
194513423.7427473 0.016680152931517995 0.06788968394707509 0.983319847068482 -0.06788968394707509 0.983319847068482 -0.06788968394707509 0.016680152931517995 0.06788968394707509
196514660.90992516 0.016818912433453584 0.06854796365022622 0.9831810875665464 -0.06854796365022622 0.9831810875665464 -0.06854796365022622 0.016818912433453584 0.06854796365022622
198536487.65967387 0.016959652309051616 0.06921248445674322 0.9830403476909482 -0.06921248445674322 0.9830403476909482 -0.06921248445674322 0.016959652309051616 0.06921248445674322
200579115.82641137 0.017102408076371842 0.06988330173661489 0.9828975919236279 -0.06988330173661489 0.9828975919236279 -0.06988330173661489 0.017102408076371842 0.06988330173661489
202642759.4239985 0.017247215916931045 0.0705604712425993 0.9827527840830689 -0.0705604712425993 0.9827527840830689 -0.0705604712425993 0.017247215916931045 0.0705604712425993
204727634.66816226 0.01739411268776079 0.07124404910952896 0.9826058873122393 -0.07124404910952896 0.9826058873122393 -0.07124404910952896 0.01739411268776079 0.07124404910952896
206833959.99914914 0.01754313593366577 0.0719340918534859 0.9824568640663343 -0.0719340918534859 0.9824568640663343 -0.0719340918534859 0.01754313593366577 0.0719340918534859
208961956.10461232 0.017694323899685345 0.07263065637084232 0.9823056761003148 -0.07263065637084232 0.9823056761003148 -0.07263065637084232 0.017694323899685345 0.07263065637084232
211111845.94273368 0.017847715543760863 0.07333379993716214 0.982152284456239 -0.07333379993716214 0.982152284456239 -0.07333379993716214 0.017847715543760863 0.07333379993716214
213283854.7655843 0.018003350549611365 0.07404358020595872 0.9819966494503888 -0.07404358020595872 0.9819966494503888 -0.07404358020595872 0.018003350549611365 0.07404358020595872
215478210.14272448 0.018161269339820065 0.07476005520730293 0.9818387306601799 -0.07476005520730293 0.9818387306601799 -0.07476005520730293 0.018161269339820065 0.07476005520730293
217695141.98504755 0.018321513089134475 0.07548328334627791 0.9816784869108656 -0.07548328334627791 0.9816784869108656 -0.07548328334627791 0.018321513089134475 0.07548328334627791
219934882.5688682 0.018484123737982444 0.07621332340127387 0.9815158762620176 -0.07621332340127387 0.9815158762620176 -0.07621332340127387 0.018484123737982444 0.07621332340127387
222197666.56025904 0.0186491440062068 0.07695023452211837 0.9813508559937933 -0.07695023452211837 0.9813508559937933 -0.07695023452211837 0.0186491440062068 0.07695023452211837
224483731.03963748 0.018816617407021063 0.07769407622803608 0.981183382592979 -0.07769407622803608 0.981183382592979 -0.07769407622803608 0.018816617407021063 0.07769407622803608
226793315.52660546 0.018986588261188847 0.07844490840543261 0.9810134117388111 -0.07844490840543261 0.9810134117388111 -0.07844490840543261 0.018986588261188847 0.07844490840543261
229126662.00504485 0.01915910171142928 0.07920279130549637 0.9808408982885708 -0.07920279130549637 0.9808408982885708 -0.07920279130549637 0.01915910171142928 0.07920279130549637
231484014.94847116 0.019334203737051057 0.07996778554161244 0.9806657962629489 -0.07996778554161244 0.9806657962629489 -0.07996778554161244 0.019334203737051057 0.07996778554161244
233865621.34564763 0.019511941168817524 0.08073995208658226 0.9804880588311824 -0.08073995208658226 0.9804880588311824 -0.08073995208658226 0.019511941168817524 0.08073995208658226
236271730.7264636 0.019692361704045265 0.08151935226964309 0.9803076382959548 -0.08151935226964309 0.9803076382959548 -0.08151935226964309 0.019692361704045265 0.08151935226964309
238702595.18807822 0.019875513921938457 0.08230604777328009 0.9801244860780614 -0.08230604777328009 0.9801244860780614 -0.08230604777328009 0.019875513921938457 0.08230604777328009
241158469.42133406 0.020061447299161594 0.08310010062982502 0.9799385527008383 -0.08310010062982502 0.9799385527008383 -0.08310010062982502 0.020061447299161594 0.08310010062982502
243639610.73744175 0.020250212225652615 0.08390157321783422 0.9797497877743475 -0.08390157321783422 0.9797497877743475 -0.08390157321783422 0.020250212225652615 0.08390157321783422
246146279.0949396 0.020441860020678982 0.08471052825823887 0.979558139979321 -0.08471052825823887 0.979558139979321 -0.08471052825823887 0.020441860020678982 0.08471052825823887
248678737.12693024 0.020636442949138845 0.08552702881026084 0.9793635570508611 -0.08552702881026084 0.9793635570508611 -0.08552702881026084 0.020636442949138845 0.08552702881026084
251237250.16859794 0.02083401423810936 0.08635113826708561 0.979165985761891 -0.08635113826708561 0.979165985761891 -0.08635113826708561 0.02083401423810936 0.08635113826708561
253822086.2850087 0.02103462809364462 0.08718292035128579 0.9789653719063552 -0.08718292035128579 0.9789653719063552 -0.08718292035128579 0.02103462809364462 0.08718292035128579
256433516.29919615 0.02123833971782496 0.08802243910998687 0.978761660282175 -0.08802243910998687 0.978761660282175 -0.08802243910998687 0.02123833971782496 0.08802243910998687
259071813.82053724 0.021445205326059882 0.08886975890976699 0.9785547946739401 -0.08886975890976699 0.9785547946739401 -0.08886975890976699 0.021445205326059882 0.08886975890976699
261737255.27341878 0.02165528216464641 0.08972494443128302 0.9783447178353536 -0.08972494443128302 0.9783447178353536 -0.08972494443128302 0.02165528216464641 0.08972494443128302
264430119.92619988 0.02186862852858495 0.09058806066361436 0.9781313714714152 -0.09058806066361436 0.9781313714714152 -0.09058806066361436 0.02186862852858495 0.09058806066361436
267150689.9204718 0.022085303779654238 0.09145917289831527 0.9779146962203458 -0.09145917289831527 0.9779146962203458 -0.09145917289831527 0.022085303779654238 0.09145917289831527
269899250.3006187 0.02230536836474734 0.09233834672316805 0.9776946316352526 -0.09233834672316805 0.9776946316352526 -0.09233834672316805 0.02230536836474734 0.09233834672316805
272676089.04368347 0.022528883834470187 0.09322564801562667 0.9774711161655297 -0.09322564801562667 0.9774711161655297 -0.09322564801562667 0.022528883834470187 0.09322564801562667
275481497.0895395 0.02275591286200426 0.09412114293594243 0.9772440871379957 -0.09412114293594243 0.9772440871379957 -0.09412114293594243 0.02275591286200426 0.09412114293594243
278315768.371374 0.022986519262234946 0.09502489791996191 0.9770134807377651 -0.09502489791996191 0.9770134807377651 -0.09502489791996191 0.022986519262234946 0.09502489791996191
281179199.84648436 0.023220768011146847 0.09593697967158744 0.9767792319888533 -0.09593697967158744 0.9767792319888533 -0.09593697967158744 0.023220768011146847 0.09593697967158744
284072091.52739125 0.023458725265487198 0.09685745515488971 0.976541274734513 -0.09685745515488971 0.976541274734513 -0.09685745515488971 0.023458725265487198 0.09685745515488971
286994746.51327246 0.023700458382698776 0.09778639158586296 0.9762995416173014 -0.09778639158586296 0.9762995416173014 -0.09778639158586296 0.023700458382698776 0.09778639158586296
289947471.02171946 0.023946035941123087 0.09872385642381194 0.9760539640588771 -0.09872385642381194 0.9760539640588771 -0.09872385642381194 0.023946035941123087 0.09872385642381194
292930574.4208211 0.02419552776047471 0.0996699173623595 0.9758044722395254 -0.0996699173623595 0.9758044722395254 -0.0996699173623595 0.02419552776047471 0.0996699173623595
295944369.2615772 0.024449004922587655 0.10062464232006467 0.9755509950774122 -0.10062464232006467 0.9755509950774122 -0.10062464232006467 0.024449004922587655 0.10062464232006467
298989171.3106458 0.024706539792434267 0.10158809943063928 0.9752934602075658 -0.10158809943063928 0.9752934602075658 -0.10158809943063928 0.024706539792434267 0.10158809943063928
