!Murata Part Number: LQP02TN10NJ02
!These Parameters are Measured in Series Mode Connection
!       o--[+]--o
!Port1              Port2
!       o-------o
!Freq. Start=100[MHz] Stop=6[GHz], 401[Steps]
# Hz S RI R 50
!Freq.(Hz)	S 11(Real)	S 11(Imag)	S 21(Real)	S 21(Imag)	S 12(Real)	S 12(Imag)	S 22(Real)	S 22(Imag)	
100000000 0.02211768444018797 0.06471856408247297 0.9778823155598119 -0.06471856408247297 0.9778823155598119 -0.06471856408247297 0.02211768444018797 0.06471856408247297
101028842.70333165 0.02226729861660412 0.06535234251177577 0.9777327013833957 -0.06535234251177577 0.9777327013833957 -0.06535234251177577 0.02226729861660412 0.06535234251177577
102068270.57974531 0.022418821648860335 0.0659921872735374 0.9775811783511397 -0.0659921872735374 0.9775811783511397 -0.0659921872735374 0.022418821648860335 0.0659921872735374
103118392.53402182 0.02257228711342198 0.06663815274529093 0.9774277128865779 -0.06663815274529093 0.9774277128865779 -0.06663815274529093 0.02257228711342198 0.06663815274529093
104179318.591401 0.02272772921653855 0.06729029368727031 0.9772722707834615 -0.06729029368727031 0.9772722707834615 -0.06729029368727031 0.02272772921653855 0.06729029368727031
105251159.90910926 0.02288518280576327 0.0679486652418739 0.9771148171942364 -0.0679486652418739 0.9771148171942364 -0.0679486652418739 0.02288518280576327 0.0679486652418739
106334028.78800607 0.023044683381665133 0.06861332293300265 0.9769553166183349 -0.06861332293300265 0.9769553166183349 -0.06861332293300265 0.023044683381665133 0.06861332293300265
107428038.68435004 0.023206267109735463 0.0692843226652684 0.9767937328902645 -0.0692843226652684 0.9767937328902645 -0.0692843226652684 0.023206267109735463 0.0692843226652684
108533304.2216863 0.023369970832491833 0.06996172072306775 0.9766300291675081 -0.06996172072306775 0.9766300291675081 -0.06996172072306775 0.023369970832491833 0.06996172072306775
109649941.20285586 0.02353583208178147 0.07064557376951638 0.9764641679182186 -0.07064557376951638 0.9764641679182186 -0.07064557376951638 0.02353583208178147 0.07064557376951638
110778066.62212887 0.02370388909128677 0.07133593884523974 0.9762961109087132 -0.07133593884523974 0.9762961109087132 -0.07133593884523974 0.02370388909128677 0.07133593884523974
111917798.67746255 0.023874180809235184 0.07203287336701407 0.9761258191907648 -0.07203287336701407 0.9761258191907648 -0.07203287336701407 0.023874180809235184 0.07203287336701407
113069256.78288502 0.024046746911315968 0.07273643512625322 0.975953253088684 -0.07273643512625322 0.975953253088684 -0.07273643512625322 0.024046746911315968 0.07273643512625322
114232561.58100708 0.02422162781380625 0.07344668228733614 0.9757783721861939 -0.07344668228733614 0.9757783721861939 -0.07344668228733614 0.02422162781380625 0.07344668228733614
115407834.95566209 0.024398864686908554 0.07416367338576887 0.9756011353130913 -0.07416367338576887 0.9756011353130913 -0.07416367338576887 0.024398864686908554 0.07416367338576887
116595200.04467647 0.024578499468302508 0.07488746732617634 0.9754215005316976 -0.07488746732617634 0.9754215005316976 -0.07488746732617634 0.024578499468302508 0.07488746732617634
117794781.25277108 0.024760574876912602 0.0756181233801171 0.9752394251230875 -0.0756181233801171 0.9752394251230875 -0.0756181233801171 0.024760574876912602 0.0756181233801171
119006704.2645957 0.0249451344268948 0.07635570118371648 0.9750548655731053 -0.07635570118371648 0.9750548655731053 -0.07635570118371648 0.0249451344268948 0.07635570118371648
120231096.05789746 0.025132222441843897 0.07710026073511088 0.9748677775581561 -0.07710026073511088 0.9748677775581561 -0.07710026073511088 0.025132222441843897 0.07710026073511088
121468084.91682482 0.025321884069224105 0.07785186239169761 0.9746781159307758 -0.07785186239169761 0.9746781159307758 -0.07785186239169761 0.025321884069224105 0.07785186239169761
122717800.44536826 0.025514165295024947 0.07861056686718354 0.974485834704975 -0.07861056686718354 0.974485834704975 -0.07861056686718354 0.025514165295024947 0.07861056686718354
123980373.58093955 0.025709112958644812 0.07937643522842672 0.9742908870413551 -0.07937643522842672 0.9742908870413551 -0.07937643522842672 0.025709112958644812 0.07937643522842672
125255936.60809036 0.025906774768004025 0.0801495288920628 0.9740932252319958 -0.0801495288920628 0.9740932252319958 -0.0801495288920628 0.025906774768004025 0.0801495288920628
126544623.17237243 0.026107199314889938 0.08092990962091126 0.97389280068511 -0.08092990962091126 0.97389280068511 -0.08092990962091126 0.026107199314889938 0.08092990962091126
127846568.29433991 0.026310436090535672 0.08171763952015246 0.9736895639094645 -0.08171763952015246 0.9736895639094645 -0.08171763952015246 0.026310436090535672 0.08171763952015246
129161908.38369614 0.026516535501434735 0.08251278103326949 0.9734834644985655 -0.08251278103326949 0.9734834644985655 -0.08251278103326949 0.026516535501434735 0.08251278103326949
130490781.25358573 0.026725548885393538 0.08331539693774702 0.9732744511146066 -0.08331539693774702 0.9732744511146066 -0.08331539693774702 0.026725548885393538 0.08331539693774702
131833326.13503371 0.026937528527823412 0.0841255503405192 0.9730624714721764 -0.0841255503405192 0.9730624714721764 -0.0841255503405192 0.026937528527823412 0.0841255503405192
133189683.69153343 0.02715252767827414 0.08494330467315898 0.9728474723217256 -0.08494330467315898 0.9728474723217256 -0.08494330467315898 0.02715252767827414 0.08494330467315898
134559996.03378427 0.02737060056721078 0.085768723686801 0.9726293994327893 -0.085768723686801 0.9726293994327893 -0.085768723686801 0.02737060056721078 0.085768723686801
135944406.73458123 0.027591802423035182 0.0866018714467891 0.9724081975769648 -0.0866018714467891 0.9724081975769648 -0.0866018714467891 0.027591802423035182 0.0866018714467891
137343060.84385747 0.027816189489354114 0.08744281232704094 0.9721838105106462 -0.08744281232704094 0.9721838105106462 -0.08744281232704094 0.027816189489354114 0.08744281232704094
138756104.90388185 0.028043819042495303 0.08829161100412015 0.9719561809575048 -0.08829161100412015 0.9719561809575048 -0.08829161100412015 0.028043819042495303 0.08829161100412015
140183686.96461266 0.028274749409272822 0.0891483324510078 0.9717252505907273 -0.0891483324510078 0.9717252505907273 -0.0891483324510078 0.028274749409272822 0.0891483324510078
141625956.59920937 0.02850903998500312 0.09001304193056328 0.971490960014997 -0.09001304193056328 0.971490960014997 -0.09001304193056328 0.02850903998500312 0.09001304193056328
143083064.919704 0.0287467512517729 0.0908858049886662 0.9712532487482272 -0.0908858049886662 0.9712532487482272 -0.0908858049886662 0.0287467512517729 0.0908858049886662
144555164.59283367 0.02898794479696005 0.09176668744702907 0.9710120552030401 -0.09176668744702907 0.9710120552030401 -0.09176668744702907 0.02898794479696005 0.09176668744702907
146042409.8560361 0.02923268333200839 0.09265575539567075 0.9707673166679917 -0.09265575539567075 0.9707673166679917 -0.09265575539567075 0.02923268333200839 0.09265575539567075
147544956.53360963 0.029481030711457263 0.09355307518504183 0.9705189692885425 -0.09355307518504183 0.9705189692885425 -0.09355307518504183 0.029481030711457263 0.09355307518504183
149062962.05303955 0.029733051952226558 0.09445871341778984 0.9702669480477734 -0.09445871341778984 0.9702669480477734 -0.09445871341778984 0.029733051952226558 0.09445871341778984
150596585.46149227 0.029988813253157824 0.09537273694015545 0.9700111867468422 -0.09537273694015545 0.9700111867468422 -0.09537273694015545 0.029988813253157824 0.09537273694015545
152145987.44247946 0.03024838201481189 0.09629521283298781 0.9697516179851879 -0.09629521283298781 0.9697516179851879 -0.09629521283298781 0.03024838201481189 0.09629521283298781
153711330.33269328 0.030511826859523215 0.09722620840236855 0.9694881731404767 -0.09722620840236855 0.9694881731404767 -0.09722620840236855 0.030511826859523215 0.09722620840236855
155292778.13901523 0.0307792176517111 0.09816579116983283 0.969220782348289 -0.09816579116983283 0.969220782348289 -0.09816579116983283 0.0307792176517111 0.09816579116983283
156890496.5556995 0.031050625518447734 0.09911402886217596 0.9689493744815523 -0.09911402886217596 0.9689493744815523 -0.09911402886217596 0.031050625518447734 0.09911402886217596
158504652.98173362 0.031326122870282726 0.100070989400834 0.9686738771297171 -0.100070989400834 0.9686738771297171 -0.100070989400834 0.031326122870282726 0.100070989400834
160135416.53837734 0.03160578342232383 0.10103674089082622 0.9683942165776762 -0.10103674089082622 0.9683942165776762 -0.10103674089082622 0.03160578342232383 0.10103674089082622
161782958.0868822 0.03188968221557305 0.10201135160924638 0.9681103177844271 -0.10201135160924638 0.9681103177844271 -0.10201135160924638 0.03188968221557305 0.10201135160924638
163447450.24639317 0.032177895638517355 0.10299488999329143 0.9678221043614824 -0.10299488999329143 0.9678221043614824 -0.10299488999329143 0.032177895638517355 0.10299488999329143
165129067.41203484 0.03247050144897313 0.10398742462781414 0.9675294985510271 -0.10398742462781414 0.9675294985510271 -0.10398742462781414 0.03247050144897313 0.10398742462781414
166827985.77318317 0.03276757879618239 0.10498902423238533 0.9672324212038177 -0.10498902423238533 0.9672324212038177 -0.10498902423238533 0.03276757879618239 0.10498902423238533
168544383.33192575 0.03306920824316023 0.10599975764785505 0.9669307917568399 -0.10599975764785505 0.9669307917568399 -0.10599975764785505 0.03306920824316023 0.10599975764785505
170278439.9217116 0.03337547178929062 0.10701969382239573 0.9666245282107093 -0.10701969382239573 0.9666245282107093 -0.10701969382239573 0.03337547178929062 0.10701969382239573
172030337.2261931 0.03368645289316936 0.10804890179701576 0.9663135471068305 -0.10804890179701576 0.9663135471068305 -0.10804890179701576 0.03368645289316936 0.10804890179701576
173800258.7982616 0.03400223649569112 0.10908745069052772 0.9659977635043089 -0.10908745069052772 0.9659977635043089 -0.10908745069052772 0.03400223649569112 0.10908745069052772
175588390.07927907 0.034322909043378515 0.11013540968395741 0.9656770909566216 -0.11013540968395741 0.9656770909566216 -0.11013540968395741 0.034322909043378515 0.11013540968395741
177394918.41850725 0.03464855851194976 0.1111928480043781 0.9653514414880505 -0.1111928480043781 0.9653514414880505 -0.1111928480043781 0.03464855851194976 0.1111928480043781
179220033.0927372 0.03497927443012191 0.11225983490815566 0.9650207255698782 -0.11225983490815566 0.9650207255698782 -0.11225983490815566 0.03497927443012191 0.11225983490815566
181063925.3261204 0.03531514790364604 0.11333643966358824 0.9646848520963541 -0.11333643966358824 0.9646848520963541 -0.11333643966358824 0.03531514790364604 0.11333643966358824
182926788.3102041 0.03565627163957021 0.114422731532925 0.9643437283604299 -0.114422731532925 0.9643437283604299 -0.114422731532925 0.03565627163957021 0.114422731532925
184808817.22417256 0.03600273997072614 0.11551877975374787 0.9639972600292737 -0.11551877975374787 0.9639972600292737 -0.11551877975374787 0.03600273997072614 0.11551877975374787
186710209.25529698 0.03635464888043463 0.11662465351969992 0.9636453511195655 -0.11662465351969992 0.9636453511195655 -0.11662465351969992 0.03635464888043463 0.11662465351969992
188631163.61959538 0.03671209602742478 0.11774042196054318 0.9632879039725751 -0.11774042196054318 0.9632879039725751 -0.11774042196054318 0.03671209602742478 0.11774042196054318
190571881.58270517 0.037075180770961516 0.11886615412152972 0.9629248192290385 -0.11886615412152972 0.9629248192290385 -0.11886615412152972 0.037075180770961516 0.11886615412152972
192532566.48097068 0.03744400419617517 0.12000191894206765 0.9625559958038248 -0.12000191894206765 0.9625559958038248 -0.12000191894206765 0.03744400419617517 0.12000191894206765
194513423.7427473 0.03781866913958707 0.12114778523366503 0.9621813308604128 -0.12114778523366503 0.9621813308604128 -0.12114778523366503 0.03781866913958707 0.12114778523366503
196514660.90992516 0.03819928021482415 0.12230382165713412 0.9618007197851758 -0.12230382165713412 0.9618007197851758 -0.12230382165713412 0.03819928021482415 0.12230382165713412
198536487.65967387 0.03858594383851492 0.12347009669903634 0.9614140561614852 -0.12347009669903634 0.9614140561614852 -0.12347009669903634 0.03858594383851492 0.12347009669903634
200579115.82641137 0.03897876825635948 0.12464667864735104 0.9610212317436404 -0.12464667864735104 0.9610212317436404 -0.12464667864735104 0.03897876825635948 0.12464667864735104
202642759.4239985 0.03937786356936478 0.1258336355663482 0.9606221364306352 -0.1258336355663482 0.9606221364306352 -0.1258336355663482 0.03937786356936478 0.1258336355663482
204727634.66816226 0.03978334176023619 0.12703103527064596 0.9602166582397638 -0.12703103527064596 0.9602166582397638 -0.12703103527064596 0.03978334176023619 0.12703103527064596
206833959.99914914 0.040195316719916226 0.12823894529843433 0.9598046832800837 -0.12823894529843433 0.9598046832800837 -0.12823894529843433 0.040195316719916226 0.12823894529843433
208961956.10461232 0.04061390427425987 0.12945743288384437 0.9593860957257403 -0.12945743288384437 0.9593860957257403 -0.12945743288384437 0.04061390427425987 0.12945743288384437
211111845.94273368 0.04103922221083622 0.13068656492844324 0.9589607777891639 -0.13068656492844324 0.9589607777891639 -0.13068656492844324 0.04103922221083622 0.13068656492844324
213283854.7655843 0.041471390305844805 0.13192640797183552 0.9585286096941551 -0.13192640797183552 0.9585286096941551 -0.13192640797183552 0.041471390305844805 0.13192640797183552
215478210.14272448 0.041910530351134845 0.13317702816134896 0.958089469648865 -0.13317702816134896 0.958089469648865 -0.13317702816134896 0.041910530351134845 0.13317702816134896
217695141.98504755 0.04235676618131466 0.1344384912207848 0.9576432338186852 -0.1344384912207848 0.9576432338186852 -0.1344384912207848 0.04235676618131466 0.1344384912207848
219934882.5688682 0.042810223700937684 0.13571086241821104 0.9571897762990625 -0.13571086241821104 0.9571897762990625 -0.13571086241821104 0.042810223700937684 0.13571086241821104
222197666.56025904 0.043271030911751426 0.13699420653277797 0.9567289690882486 -0.13699420653277797 0.9567289690882486 -0.13699420653277797 0.043271030911751426 0.13699420653277797
224483731.03963748 0.0437393179399942 0.1382885878205338 0.9562606820600058 -0.1382885878205338 0.9562606820600058 -0.1382885878205338 0.0437393179399942 0.1382885878205338
226793315.52660546 0.04421521706372406 0.13959406997921858 0.9557847829362759 -0.13959406997921858 0.9557847829362759 -0.13959406997921858 0.04421521706372406 0.13959406997921858
229126662.00504485 0.044698862740163534 0.14091071611201506 0.9553011372598366 -0.14091071611201506 0.9553011372598366 -0.14091071611201506 0.044698862740163534 0.14091071611201506
231484014.94847116 0.04519039163304295 0.14223858869023326 0.9548096083669569 -0.14223858869023326 0.9548096083669569 -0.14223858869023326 0.04519039163304295 0.14223858869023326
233865621.34564763 0.045689942639924125 0.14357774951490723 0.954310057360076 -0.14357774951490723 0.954310057360076 -0.14357774951490723 0.045689942639924125 0.14357774951490723
236271730.7264636 0.04619765691948546 0.14492825967728074 0.9538023430805146 -0.14492825967728074 0.9538023430805146 -0.14492825967728074 0.04619765691948546 0.14492825967728074
238702595.18807822 0.04671367791874861 0.14629017951815973 0.9532863220812513 -0.14629017951815973 0.9532863220812513 -0.14629017951815973 0.04671367791874861 0.14629017951815973
241158469.42133406 0.04723815140022564 0.14766356858610788 0.9527618485997743 -0.14766356858610788 0.9527618485997743 -0.14766356858610788 0.04723815140022564 0.14766356858610788
243639610.73744175 0.04777122546896507 0.14904848559446282 0.9522287745310349 -0.14904848559446282 0.9522287745310349 -0.14904848559446282 0.04777122546896507 0.14904848559446282
246146279.0949396 0.048313050599473634 0.15044498837714926 0.9516869494005262 -0.15044498837714926 0.9516869494005262 -0.15044498837714926 0.048313050599473634 0.15044498837714926
248678737.12693024 0.04886377966249042 0.15185313384326674 0.9511362203375098 -0.15185313384326674 0.9511362203375098 -0.15185313384326674 0.04886377966249042 0.15185313384326674
251237250.16859794 0.04942356795158758 0.1532729779304268 0.9505764320484124 -0.1532729779304268 0.9505764320484124 -0.1532729779304268 0.04942356795158758 0.1532729779304268
253822086.2850087 0.04999257320957269 0.15470457555681902 0.9500074267904274 -0.15470457555681902 0.9500074267904274 -0.15470457555681902 0.04999257320957269 0.15470457555681902
256433516.29919615 0.0505709556546644 0.1561479805719789 0.9494290443453359 -0.1561479805719789 0.9494290443453359 -0.1561479805719789 0.0505709556546644 0.1561479805719789
259071813.82053724 0.05115887800641392 0.1576032457062376 0.9488411219935863 -0.1576032457062376 0.9488411219935863 -0.1576032457062376 0.05115887800641392 0.1576032457062376
261737255.27341878 0.0517565055113424 0.15907042251882772 0.9482434944886577 -0.15907042251882772 0.9482434944886577 -0.15907042251882772 0.0517565055113424 0.15907042251882772
264430119.92619988 0.05236400596826354 0.16054956134462287 0.9476359940317365 -0.16054956134462287 0.9476359940317365 -0.16054956134462287 0.05236400596826354 0.16054956134462287
267150689.9204718 0.052981549753259326 0.16204071123948735 0.9470184502467406 -0.16204071123948735 0.9470184502467406 -0.16204071123948735 0.052981549753259326 0.16204071123948735
269899250.3006187 0.053609309844276004 0.16354391992421366 0.946390690155724 -0.16354391992421366 0.946390690155724 -0.16354391992421366 0.053609309844276004 0.16354391992421366
272676089.04368347 0.054247461845304684 0.16505923372702264 0.9457525381546952 -0.16505923372702264 0.9457525381546952 -0.16505923372702264 0.054247461845304684 0.16505923372702264
275481497.0895395 0.05489618401011209 0.16658669752460667 0.9451038159898878 -0.16658669752460667 0.9451038159898878 -0.16658669752460667 0.05489618401011209 0.16658669752460667
278315768.371374 0.05555565726548238 0.16812635468169002 0.9444443427345176 -0.16812635468169002 0.9444443427345176 -0.16812635468169002 0.05555565726548238 0.16812635468169002
281179199.84648436 0.056226065233932726 0.16967824698908682 0.9437739347660671 -0.16967824698908682 0.9437739347660671 -0.16967824698908682 0.056226065233932726 0.16967824698908682
284072091.52739125 0.05690759425586143 0.17124241460023276 0.9430924057441387 -0.17124241460023276 0.9430924057441387 -0.17124241460023276 0.05690759425586143 0.17124241460023276
286994746.51327246 0.05760043341108712 0.17281889596616942 0.9423995665889131 -0.17281889596616942 0.9423995665889131 -0.17281889596616942 0.05760043341108712 0.17281889596616942
289947471.02171946 0.058304774539735996 0.17440772776896055 0.941695225460264 -0.17440772776896055 0.941695225460264 -0.17440772776896055 0.058304774539735996 0.17440772776896055
292930574.4208211 0.05902081226243211 0.17600894485351917 0.9409791877375678 -0.17600894485351917 0.9409791877375678 -0.17600894485351917 0.05902081226243211 0.17600894485351917
295944369.2615772 0.05974874399974398 0.1776225801578245 0.9402512560002559 -0.1776225801578245 0.9402512560002559 -0.1776225801578245 0.05974874399974398 0.1776225801578245
298989171.3106458 0.060488769990840095 0.17924866464151007 0.9395112300091598 -0.17924866464151007 0.9395112300091598 -0.17924866464151007 0.060488769990840095 0.17924866464151007
302065299.58342713 0.06124109331130323 0.1808872272128033 0.9387589066886964 -0.1808872272128033 0.9387589066886964 -0.1808872272128033 0.06124109331130323 0.1808872272128033
