!Murata Part Number: LQP02TN8N2J02
!These Parameters are Measured in Series Mode Connection
!       o--[+]--o
!Port1              Port2
!       o-------o
!Freq. Start=100[MHz] Stop=6[GHz], 401[Steps]
# Hz S RI R 50
!Freq.(Hz)	S 11(Real)	S 11(Imag)	S 21(Real)	S 21(Imag)	S 12(Real)	S 12(Imag)	S 22(Real)	S 22(Imag)	
100000000 0.017501203851542774 0.05121766380774756 0.982498796148457 -0.05121766380774756 0.982498796148457 -0.05121766380774756 0.017501203851542774 0.05121766380774756
101028842.70333165 0.017607679112978714 0.051722593726106325 0.9823923208870213 -0.051722593726106325 0.9823923208870213 -0.051722593726106325 0.017607679112978714 0.051722593726106325
102068270.57974531 0.0177154003532783 0.05223242760988506 0.9822845996467217 -0.05223242760988506 0.9822845996467217 -0.05223242760988506 0.0177154003532783 0.05223242760988506
103118392.53402182 0.017824389077583262 0.05274721119873937 0.9821756109224167 -0.05274721119873937 0.9821756109224167 -0.05274721119873937 0.017824389077583262 0.05274721119873937
104179318.591401 0.017934667199194163 0.053266990606305464 0.9820653328008059 -0.053266990606305464 0.9820653328008059 -0.053266990606305464 0.017934667199194163 0.053266990606305464
105251159.90910926 0.018046257047285783 0.05379181232168205 0.9819537429527141 -0.05379181232168205 0.9819537429527141 -0.05379181232168205 0.018046257047285783 0.05379181232168205
106334028.78800607 0.01815918137476131 0.054321723210863766 0.9818408186252388 -0.054321723210863766 0.9818408186252388 -0.054321723210863766 0.01815918137476131 0.054321723210863766
107428038.68435004 0.018273463366247508 0.054856770518124515 0.9817265366337524 -0.054856770518124515 0.9817265366337524 -0.054856770518124515 0.018273463366247508 0.054856770518124515
108533304.2216863 0.018389126646233177 0.055397001867347626 0.9816108733537667 -0.055397001867347626 0.9816108733537667 -0.055397001867347626 0.018389126646233177 0.055397001867347626
109649941.20285586 0.018506195287352974 0.05594246526330119 0.9814938047126469 -0.05594246526330119 0.9814938047126469 -0.05594246526330119 0.018506195287352974 0.05594246526330119
110778066.62212887 0.01862469381881911 0.056493209092855844 0.9813753061811812 -0.056493209092855844 0.9813753061811812 -0.056493209092855844 0.01862469381881911 0.056493209092855844
111917798.67746255 0.01874464723500294 0.05704928212614201 0.981255352764997 -0.05704928212614201 0.981255352764997 -0.05704928212614201 0.01874464723500294 0.05704928212614201
113069256.78288502 0.01886608100416897 0.05761073351764503 0.9811339189958311 -0.05761073351764503 0.9811339189958311 -0.05761073351764503 0.01886608100416897 0.05761073351764503
114232561.58100708 0.01898902107736343 0.05817761280723425 0.9810109789226364 -0.05817761280723425 0.9810109789226364 -0.05817761280723425 0.01898902107736343 0.05817761280723425
115407834.95566209 0.01911349389745987 0.05874996992112439 0.9808865061025402 -0.05874996992112439 0.9808865061025402 -0.05874996992112439 0.01911349389745987 0.05874996992112439
116595200.04467647 0.019239526408364134 0.05932785517276557 0.9807604735916359 -0.05932785517276557 0.9807604735916359 -0.05932785517276557 0.019239526408364134 0.05932785517276557
117794781.25277108 0.01936714606438101 0.05991131926365945 0.9806328539356192 -0.05991131926365945 0.9806328539356192 -0.05991131926365945 0.01936714606438101 0.05991131926365945
119006704.2645957 0.019496380839745003 0.06050041328409836 0.9805036191602551 -0.06050041328409836 0.9805036191602551 -0.06050041328409836 0.019496380839745003 0.06050041328409836
120231096.05789746 0.019627259238317717 0.0610951887138241 0.9803727407616823 -0.0610951887138241 0.9803727407616823 -0.0610951887138241 0.019627259238317717 0.0610951887138241
121468084.91682482 0.019759810303454133 0.061695697422603724 0.9802401896965458 -0.061695697422603724 0.9802401896965458 -0.061695697422603724 0.019759810303454133 0.061695697422603724
122717800.44536826 0.019894063628040304 0.06230199167071817 0.9801059363719596 -0.06230199167071817 0.9801059363719596 -0.06230199167071817 0.019894063628040304 0.06230199167071817
123980373.58093955 0.020030049364704986 0.06291412410936124 0.9799699506352951 -0.06291412410936124 0.9799699506352951 -0.06291412410936124 0.020030049364704986 0.06291412410936124
125255936.60809036 0.020167798236207495 0.06353214778094458 0.9798322017637925 -0.06353214778094458 0.9798322017637925 -0.06353214778094458 0.020167798236207495 0.06353214778094458
126544623.17237243 0.020307341546004495 0.06415611611930572 0.9796926584539956 -0.06415611611930572 0.9796926584539956 -0.06415611611930572 0.020307341546004495 0.06415611611930572
127846568.29433991 0.020448711188998065 0.06478608294981508 0.9795512888110021 -0.06478608294981508 0.9795512888110021 -0.06478608294981508 0.020448711188998065 0.06478608294981508
129161908.38369614 0.020591939662467525 0.0654221024893781 0.9794080603375327 -0.0654221024893781 0.9794080603375327 -0.0654221024893781 0.020591939662467525 0.0654221024893781
130490781.25358573 0.020737060077187678 0.06606422934632865 0.9792629399228125 -0.06606422934632865 0.9792629399228125 -0.06606422934632865 0.020737060077187678 0.06606422934632865
131833326.13503371 0.020884106168735823 0.06671251852020982 0.9791158938312642 -0.06671251852020982 0.9791158938312642 -0.06671251852020982 0.020884106168735823 0.06671251852020982
133189683.69153343 0.021033112308990232 0.0673670254014377 0.9789668876910098 -0.0673670254014377 0.9789668876910098 -0.0673670254014377 0.021033112308990232 0.0673670254014377
134559996.03378427 0.021184113517822355 0.06802780577084357 0.9788158864821774 -0.06802780577084357 0.9788158864821774 -0.06802780577084357 0.021184113517822355 0.06802780577084357
135944406.73458123 0.021337145474985632 0.06869491579909104 0.9786628545250144 -0.06869491579909104 0.9786628545250144 -0.06869491579909104 0.021337145474985632 0.06869491579909104
137343060.84385747 0.021492244532203105 0.06936841204596227 0.978507755467797 -0.06936841204596227 0.978507755467797 -0.06936841204596227 0.021492244532203105 0.06936841204596227
138756104.90388185 0.021649447725456617 0.07004835145950987 0.9783505522745435 -0.07004835145950987 0.9783505522745435 -0.07004835145950987 0.021649447725456617 0.07004835145950987
140183686.96461266 0.02180879278747993 0.07073479137506888 0.9781912072125204 -0.07073479137506888 0.9781912072125204 -0.07073479137506888 0.02180879278747993 0.07073479137506888
141625956.59920937 0.021970318160458392 0.07142778951412392 0.9780296818395418 -0.07142778951412392 0.9780296818395418 -0.07142778951412392 0.021970318160458392 0.07142778951412392
143083064.919704 0.022134063008937645 0.07212740398302687 0.9778659369910623 -0.07212740398302687 0.9778659369910623 -0.07212740398302687 0.022134063008937645 0.07212740398302687
144555164.59283367 0.02230006723294386 0.07283369327155965 0.977699932767056 -0.07283369327155965 0.977699932767056 -0.07283369327155965 0.02230006723294386 0.07283369327155965
146042409.8560361 0.022468371481317962 0.07354671625133637 0.9775316285186821 -0.07354671625133637 0.9775316285186821 -0.07354671625133637 0.022468371481317962 0.07354671625133637
147544956.53360963 0.02263901716526635 0.07426653217403978 0.9773609828347336 -0.07426653217403978 0.9773609828347336 -0.07426653217403978 0.02263901716526635 0.07426653217403978
149062962.05303955 0.02281204647213063 0.07499320066948653 0.9771879535278691 -0.07499320066948653 0.9771879535278691 -0.07499320066948653 0.02281204647213063 0.07499320066948653
150596585.46149227 0.022987502379378657 0.0757267817435146 0.9770124976206213 -0.0757267817435146 0.9770124976206213 -0.0757267817435146 0.022987502379378657 0.0757267817435146
152145987.44247946 0.02316542866881943 0.07646733577568765 0.9768345713311806 -0.07646733577568765 0.9768345713311806 -0.07646733577568765 0.02316542866881943 0.07646733577568765
153711330.33269328 0.02334586994104413 0.07721492351681002 0.9766541300589558 -0.07721492351681002 0.9766541300589558 -0.07721492351681002 0.02334586994104413 0.07721492351681002
155292778.13901523 0.02352887163009577 0.07796960608624569 0.9764711283699041 -0.07796960608624569 0.9764711283699041 -0.07796960608624569 0.02352887163009577 0.07796960608624569
156890496.5556995 0.023714480018369687 0.07873144496903524 0.9762855199816302 -0.07873144496903524 0.9762855199816302 -0.07873144496903524 0.023714480018369687 0.07873144496903524
158504652.98173362 0.023902742251747197 0.07950050201280369 0.9760972577482527 -0.07950050201280369 0.9760972577482527 -0.07950050201280369 0.023902742251747197 0.07950050201280369
160135416.53837734 0.024093706354964658 0.08027683942445256 0.9759062936450352 -0.08027683942445256 0.9759062936450352 -0.08027683942445256 0.024093706354964658 0.08027683942445256
161782958.0868822 0.02428742124722025 0.08106051976662938 0.9757125787527796 -0.08106051976662938 0.9757125787527796 -0.08106051976662938 0.02428742124722025 0.08106051976662938
163447450.24639317 0.02448393675802045 0.08185160595396702 0.9755160632419795 -0.08185160595396702 0.9755160632419795 -0.08185160595396702 0.02448393675802045 0.08185160595396702
165129067.41203484 0.024683303643268484 0.08265016124908577 0.9753166963567315 -0.08265016124908577 0.9753166963567315 -0.08265016124908577 0.024683303643268484 0.08265016124908577
166827985.77318317 0.024885573601596645 0.08345624925835017 0.9751144263984032 -0.08345624925835017 0.9751144263984032 -0.08345624925835017 0.024885573601596645 0.08345624925835017
168544383.33192575 0.02509079929094474 0.08426993392737353 0.9749092007090551 -0.08426993392737353 0.9749092007090551 -0.08426993392737353 0.02509079929094474 0.08426993392737353
170278439.9217116 0.025299034345386235 0.08509127953626143 0.974700965654614 -0.08509127953626143 0.974700965654614 -0.08509127953626143 0.025299034345386235 0.08509127953626143
172030337.2261931 0.025510333392204283 0.08592035069458627 0.9744896666077958 -0.08592035069458627 0.9744896666077958 -0.08592035069458627 0.025510333392204283 0.08592035069458627
173800258.7982616 0.025724752069219186 0.08675721233608459 0.9742752479307808 -0.08675721233608459 0.9742752479307808 -0.08675721233608459 0.025724752069219186 0.08675721233608459
175588390.07927907 0.025942347042369272 0.08760192971306861 0.9740576529576309 -0.08760192971306861 0.9740576529576309 -0.08760192971306861 0.025942347042369272 0.08760192971306861
177394918.41850725 0.026163176023546373 0.08845456839054257 0.9738368239764537 -0.08845456839054257 0.9738368239764537 -0.08845456839054257 0.026163176023546373 0.08845456839054257
179220033.0927372 0.02638729778868805 0.0893151942400157 0.973612702211312 -0.0893151942400157 0.973612702211312 -0.0893151942400157 0.02638729778868805 0.0893151942400157
181063925.3261204 0.02661477219612718 0.09018387343300162 0.9733852278038729 -0.09018387343300162 0.9733852278038729 -0.09018387343300162 0.02661477219612718 0.09018387343300162
182926788.3102041 0.026845660205201204 0.09106067243419574 0.973154339794799 -0.09106067243419574 0.973154339794799 -0.09106067243419574 0.026845660205201204 0.09106067243419574
184808817.22417256 0.027080023895121336 0.09194565799431949 0.9729199761048785 -0.09194565799431949 0.9729199761048785 -0.09194565799431949 0.027080023895121336 0.09194565799431949
186710209.25529698 0.027317926484103548 0.09283889714262314 0.9726820735158965 -0.09283889714262314 0.9726820735158965 -0.09283889714262314 0.027317926484103548 0.09283889714262314
188631163.61959538 0.027559432348761716 0.093740457179035 0.9724405676512384 -0.093740457179035 0.9724405676512384 -0.093740457179035 0.027559432348761716 0.093740457179035
190571881.58270517 0.027804607043764286 0.09465040566594843 0.9721953929562358 -0.09465040566594843 0.9721953929562358 -0.09465040566594843 0.027804607043764286 0.09465040566594843
192532566.48097068 0.028053517321754873 0.09556881041963486 0.9719464826782453 -0.09556881041963486 0.9719464826782453 -0.09556881041963486 0.028053517321754873 0.09556881041963486
194513423.7427473 0.028306231153537295 0.09649573950127152 0.9716937688464626 -0.09649573950127152 0.9716937688464626 -0.09649573950127152 0.028306231153537295 0.09649573950127152
196514660.90992516 0.028562817748525794 0.0974312612075743 0.9714371822514744 -0.0974312612075743 0.9714371822514744 -0.0974312612075743 0.028562817748525794 0.0974312612075743
198536487.65967387 0.028823347575460193 0.09837544406102174 0.9711766524245399 -0.09837544406102174 0.9711766524245399 -0.09837544406102174 0.028823347575460193 0.09837544406102174
200579115.82641137 0.02908789238338645 0.09932835679966093 0.9709121076166135 -0.09932835679966093 0.9709121076166135 -0.09932835679966093 0.02908789238338645 0.09932835679966093
202642759.4239985 0.029356525222902344 0.10029006836648141 0.9706434747770978 -0.10029006836648141 0.9706434747770978 -0.10029006836648141 0.029356525222902344 0.10029006836648141
204727634.66816226 0.02962932046766793 0.1012606478983459 0.9703706795323321 -0.1012606478983459 0.9703706795323321 -0.1012606478983459 0.02962932046766793 0.1012606478983459
206833959.99914914 0.029906353836180365 0.10224016471446452 0.9700936461638195 -0.10224016471446452 0.9700936461638195 -0.10224016471446452 0.029906353836180365 0.10224016471446452
208961956.10461232 0.030187702413812204 0.1032286883044 0.9698122975861876 -0.1032286883044 0.9698122975861876 -0.1032286883044 0.030187702413812204 0.1032286883044
211111845.94273368 0.030473444675112465 0.10422628831559085 0.9695265553248875 -0.10422628831559085 0.9695265553248875 -0.10422628831559085 0.030473444675112465 0.10422628831559085
213283854.7655843 0.030763660506369094 0.1052330345403786 0.969236339493631 -0.1052330345403786 0.969236339493631 -0.1052330345403786 0.030763660506369094 0.1052330345403786
215478210.14272448 0.03105843122843132 0.10624899690252565 0.9689415687715686 -0.10624899690252565 0.9689415687715686 -0.10624899690252565 0.03105843122843132 0.10624899690252565
217695141.98504755 0.03135783961979062 0.10727424544321011 0.9686421603802094 -0.10727424544321011 0.9686421603802094 -0.10727424544321011 0.03135783961979062 0.10727424544321011
219934882.5688682 0.03166196993991775 0.1083088503064821 0.9683380300600822 -0.1083088503064821 0.9683380300600822 -0.1083088503064821 0.03166196993991775 0.1083088503064821
222197666.56025904 0.03197090795285412 0.1093528817241681 0.9680290920471459 -0.1093528817241681 0.9680290920471459 -0.1093528817241681 0.03197090795285412 0.1093528817241681
224483731.03963748 0.03228474095105464 0.11040641000020804 0.9677152590489453 -0.11040641000020804 0.9677152590489453 -0.11040641000020804 0.03228474095105464 0.11040641000020804
226793315.52660546 0.03260355777947939 0.11146950549440938 0.9673964422205206 -0.11146950549440938 0.9673964422205206 -0.11146950549440938 0.03260355777947939 0.11146950549440938
229126662.00504485 0.03292744885993086 0.11254223860560342 0.9670725511400691 -0.11254223860560342 0.9670725511400691 -0.11254223860560342 0.03292744885993086 0.11254223860560342
231484014.94847116 0.03325650621563318 0.11362467975418729 0.9667434937843667 -0.11362467975418729 0.9667434937843667 -0.11362467975418729 0.03325650621563318 0.11362467975418729
233865621.34564763 0.03359082349604964 0.11471689936403592 0.9664091765039502 -0.11471689936403592 0.9664091765039502 -0.11471689936403592 0.03359082349604964 0.11471689936403592
236271730.7264636 0.03393049600193413 0.11581896784376725 0.9660695039980657 -0.11581896784376725 0.9660695039980657 -0.11581896784376725 0.03393049600193413 0.11581896784376725
238702595.18807822 0.03427562071061203 0.116930955567344 0.9657243792893879 -0.116930955567344 0.9657243792893879 -0.116930955567344 0.03427562071061203 0.116930955567344
241158469.42133406 0.03462629630148524 0.11805293285399467 0.9653737036985147 -0.11805293285399467 0.9653737036985147 -0.11805293285399467 0.03462629630148524 0.11805293285399467
243639610.73744175 0.03498262318175641 0.11918496994743684 0.9650173768182437 -0.11918496994743684 0.9650173768182437 -0.11918496994743684 0.03498262318175641 0.11918496994743684
246146279.0949396 0.03534470351236584 0.12032713699438399 0.9646552964876342 -0.12032713699438399 0.9646552964876342 -0.12032713699438399 0.03534470351236584 0.12032713699438399
248678737.12693024 0.035712641234135485 0.12147950402231947 0.9642873587658645 -0.12147950402231947 0.9642873587658645 -0.12147950402231947 0.035712641234135485 0.12147950402231947
251237250.16859794 0.03608654209411246 0.12264214091651691 0.9639134579058876 -0.12264214091651691 0.9639134579058876 -0.12264214091651691 0.03608654209411246 0.12264214091651691
253822086.2850087 0.03646651367210556 0.12381511739629111 0.9635334863278945 -0.12381511739629111 0.9635334863278945 -0.12381511739629111 0.03646651367210556 0.12381511739629111
256433516.29919615 0.036852665407406164 0.12499850299045734 0.9631473345925937 -0.12499850299045734 0.9631473345925937 -0.12499850299045734 0.036852665407406164 0.12499850299045734
259071813.82053724 0.03724510862568613 0.12619236701198314 0.962754891374314 -0.12619236701198314 0.962754891374314 -0.12619236701198314 0.03724510862568613 0.12619236701198314
261737255.27341878 0.03764395656606268 0.12739677853180922 0.9623560434339372 -0.12739677853180922 0.9623560434339372 -0.12739677853180922 0.03764395656606268 0.12739677853180922
264430119.92619988 0.038049324408322066 0.12861180635182334 0.961950675591678 -0.12861180635182334 0.961950675591678 -0.12861180635182334 0.038049324408322066 0.12861180635182334
267150689.9204718 0.03846132930029075 0.12983751897696358 0.9615386706997092 -0.12983751897696358 0.9615386706997092 -0.12983751897696358 0.03846132930029075 0.12983751897696358
269899250.3006187 0.03888009038534432 0.13107398458643288 0.9611199096146555 -0.13107398458643288 0.9611199096146555 -0.13107398458643288 0.03888009038534432 0.13107398458643288
272676089.04368347 0.039305728830042345 0.1323212710040026 0.9606942711699576 -0.1323212710040026 0.9606942711699576 -0.1323212710040026 0.039305728830042345 0.1323212710040026
275481497.0895395 0.03973836785187752 0.13357944566738456 0.9602616321481225 -0.13357944566738456 0.9602616321481225 -0.13357944566738456 0.03973836785187752 0.13357944566738456
278315768.371374 0.04017813274712588 0.1348485755966502 0.9598218672528741 -0.1348485755966502 0.9598218672528741 -0.1348485755966502 0.04017813274712588 0.1348485755966502
281179199.84648436 0.040625150918785526 0.13612872736167483 0.9593748490812146 -0.13612872736167483 0.9593748490812146 -0.13612872736167483 0.040625150918785526 0.13612872736167483
284072091.52739125 0.04107955190458894 0.1374199670485853 0.9589204480954111 -0.1374199670485853 0.9589204480954111 -0.1374199670485853 0.04107955190458894 0.1374199670485853
286994746.51327246 0.041541467405074334 0.13872236022518872 0.9584585325949256 -0.13872236022518872 0.9584585325949256 -0.13872236022518872 0.041541467405074334 0.13872236022518872
289947471.02171946 0.04201103131170063 0.14003597190536007 0.9579889686882993 -0.14003597190536007 0.9579889686882993 -0.14003597190536007 0.04201103131170063 0.14003597190536007
292930574.4208211 0.04248837973498893 0.14136086651236565 0.957511620265011 -0.14136086651236565 0.957511620265011 -0.14136086651236565 0.04248837973498893 0.14136086651236565
295944369.2615772 0.04297365103267374 0.14269710784109968 0.9570263489673263 -0.14269710784109968 0.9570263489673263 -0.14269710784109968 0.04297365103267374 0.14269710784109968
298989171.3106458 0.043466985837845376 0.14404475901921085 0.9565330141621546 -0.14404475901921085 0.9565330141621546 -0.14404475901921085 0.043466985837845376 0.14404475901921085
302065299.58342713 0.04396852708706439 0.14540388246709554 0.9560314729129356 -0.14540388246709554 0.9560314729129356 -0.14540388246709554 0.04396852708706439 0.14540388246709554
