!Murata Part Number: LQP03TN47NJ02
!These Parameters are Measured in Series Mode Connection
!       o--[+]--o
!Port1              Port2
!       o-------o
!Freq. Start=10[MHz] Stop=6[GHz], 401[Steps]
# Hz S RI R 50
!Freq.(Hz)	S 11(Real)	S 11(Imag)	S 21(Real)	S 21(Imag)	S 12(Real)	S 12(Imag)	S 22(Real)	S 22(Imag)	
10000000 0.028841468594999458 0.029055467090580014 0.9711585314050004 -0.029055467090580014 0.9711585314050004 -0.029055467090580014 0.028841468594999458 0.029055467090580014
10161208.857725069 0.028879340677639663 0.02951823773973147 0.9711206593223604 -0.02951823773973147 0.9711206593223604 -0.02951823773973147 0.028879340677639663 0.02951823773973147
10325016.54503104 0.02891833443750284 0.029988344187226155 0.9710816655624972 -0.029988344187226155 0.9710816655624972 -0.029988344187226155 0.02891833443750284 0.029988344187226155
10491464.95735273 0.028958485551787545 0.030465900208866702 0.9710415144482124 -0.030465900208866702 0.9710415144482124 -0.030465900208866702 0.028958485551787545 0.030465900208866702
10660596.665516473 0.028999830817580466 0.030951021141996236 0.9710001691824195 -0.030951021141996236 0.9710001691824195 -0.030951021141996236 0.028999830817580466 0.030951021141996236
10832454.926628033 0.029042408181328288 0.03144382389840815 0.9709575918186718 -0.03144382389840815 0.9709575918186718 -0.03144382389840815 0.029042408181328288 0.03144382389840815
11007083.695136031 0.029086256768944753 0.03194442697716967 0.9709137432310553 -0.03194442697716967 0.9709137432310553 -0.03194442697716967 0.029086256768944753 0.03194442697716967
11184527.634073742 0.029131416916568766 0.03245295047734944 0.9708685830834312 -0.03245295047734944 0.9708685830834312 -0.03245295047734944 0.029131416916568766 0.03245295047734944
11364832.126482092 0.029177930201989815 0.032969516110638815 0.9708220697980102 -0.032969516110638815 0.9708220697980102 -0.032969516110638815 0.029177930201989815 0.032969516110638815
11548043.287016828 0.02922583947675611 0.03349424721385603 0.970774160523244 -0.03349424721385603 0.970774160523244 -0.03349424721385603 0.02922583947675611 0.03349424721385603
11734207.973742792 0.029275188898981275 0.0340272687613217 0.9707248111010186 -0.0340272687613217 0.9707248111010186 -0.0340272687613217 0.029275188898981275 0.0340272687613217
11923373.800118338 0.029326023966864928 0.034568707377093985 0.9706739760331351 -0.034568707377093985 0.9706739760331351 -0.034568707377093985 0.029326023966864928 0.034568707377093985
12115589.147172946 0.029378391552942258 0.03511869134705079 0.9706216084470576 -0.03511869134705079 0.9706216084470576 -0.03511869134705079 0.029378391552942258 0.03511869134705079
12310903.175881147 0.029432339939077786 0.03567735063080687 0.9705676600609222 -0.03567735063080687 0.9705676600609222 -0.03567735063080687 0.029432339939077786 0.03567735063080687
12509365.83973592 0.029487918852217795 0.0362448168734523 0.9705120811477823 -0.0362448168734523 0.9705120811477823 -0.0362448168734523 0.029487918852217795 0.0362448168734523
12711027.897524802 0.029545179500916143 0.036821223417099924 0.970454820499084 -0.036821223417099924 0.970454820499084 -0.036821223417099924 0.029545179500916143 0.036821223417099924
12915940.92631195 0.029604174612647482 0.03740670531222758 0.9703958253873524 -0.03740670531222758 0.9703958253873524 -0.03740670531222758 0.029604174612647482 0.03740670531222758
13124157.334629472 0.029664958471922326 0.038001399328803004 0.9703350415280775 -0.038001399328803004 0.9703350415280775 -0.038001399328803004 0.029664958471922326 0.038001399328803004
13335730.375881441 0.02972758695921732 0.03860544396717681 0.9702724130407827 -0.03860544396717681 0.9702724130407827 -0.03860544396717681 0.02972758695921732 0.03860544396717681
13550714.161963977 0.029792117590734888 0.03921897946873141 0.970207882409265 -0.03921897946873141 0.970207882409265 -0.03921897946873141 0.029792117590734888 0.03921897946873141
13769163.67710489 0.029858609559005607 0.03984214782627233 0.9701413904409945 -0.03984214782627233 0.9701413904409945 -0.03984214782627233 0.029858609559005607 0.03984214782627233
13991134.79192645 0.02992712377434687 0.04047509279414904 0.9700728762256531 -0.04047509279414904 0.9700728762256531 -0.04047509279414904 0.02992712377434687 0.04047509279414904
14216684.277734844 0.029997722907191438 0.04111795989809337 0.9700022770928086 -0.04111795989809337 0.9700022770928086 -0.04111795989809337 0.029997722907191438 0.04111795989809337
14445869.82104 0.030070471431299508 0.041770896444762985 0.9699295285687004 -0.041770896444762985 0.9699295285687004 -0.041770896444762985 0.030070471431299508 0.041770896444762985
14678750.038309492 0.03014543566786809 0.04243405153097875 0.9698545643321318 -0.04243405153097875 0.9698545643321318 -0.04243405153097875 0.03014543566786809 0.04243405153097875
14915384.490960259 0.03022268383055165 0.04310757605264473 0.9697773161694483 -0.04310757605264473 0.9697773161694483 -0.04310757605264473 0.03022268383055165 0.04310757605264473
15155833.700592052 0.03030228607140855 0.043791622713340736 0.9696977139285914 -0.043791622713340736 0.9696977139285914 -0.043791622713340736 0.03030228607140855 0.043791622713340736
15400159.164466407 0.030384314527788333 0.044486346032577694 0.9696156854722118 -0.044486346032577694 0.9696156854722118 -0.044486346032577694 0.030384314527788333 0.044486346032577694
15648423.371235196 0.03046884337017492 0.045191902353706834 0.9695311566298249 -0.045191902353706834 0.9695311566298249 -0.045191902353706834 0.03046884337017492 0.045191902353706834
15900689.816922706 0.030555948851002716 0.045908449851474915 0.9694440511489971 -0.045908449851474915 0.9694440511489971 -0.045908449851474915 0.030555948851002716 0.045908449851474915
16157023.02116538 0.030645709354462397 0.04663614853921809 0.9693542906455376 -0.04663614853921809 0.9693542906455376 -0.04663614853921809 0.030645709354462397 0.04663614853921809
16417488.543713352 0.030738205447314853 0.04737516027568807 0.9692617945526854 -0.04737516027568807 0.9692617945526854 -0.04737516027568807 0.030738205447314853 0.04737516027568807
16682153.001197997 0.030833519930733175 0.04812564877150548 0.9691664800692665 -0.04812564877150548 0.9691664800692665 -0.04812564877150548 0.030833519930733175 0.04812564877150548
16951084.08416979 0.030931737893193607 0.04888777959523579 0.9690682621068063 -0.04888777959523579 0.9690682621068063 -0.04888777959523579 0.030931737893193607 0.04888777959523579
17224350.574410852 0.031032946764438487 0.049661720179084164 0.9689670532355614 -0.049661720179084164 0.9689670532355614 -0.049661720179084164 0.031032946764438487 0.049661720179084164
17502022.362526543 0.031137236370536045 0.05044763982420728 0.9688627636294639 -0.05044763982420728 0.9688627636294639 -0.05044763982420728 0.031137236370536045 0.05044763982420728
17784170.465820696 0.031244698990064056 0.05124570970563974 0.9687553010099359 -0.05124570970563974 0.9687553010099359 -0.05124570970563974 0.031244698990064056 0.05124570970563974
18070867.046458982 0.03135542941144685 0.05205610287683484 0.9686445705885531 -0.05205610287683484 0.9686445705885531 -0.05205610287683484 0.03135542941144685 0.05205610287683484
18362185.42992511 0.03146952499147802 0.05287899427381952 0.9685304750085219 -0.05287899427381952 0.9685304750085219 -0.05287899427381952 0.03146952499147802 0.05287899427381952
18658200.12377452 0.03158708571506382 0.053714560718964174 0.9684129142849363 -0.053714560718964174 0.9684129142849363 -0.053714560718964174 0.03158708571506382 0.053714560718964174
18958986.836690467 0.03170821425622595 0.054562980924368676 0.9682917857437741 -0.054562980924368676 0.9682917857437741 -0.054562980924368676 0.03170821425622595 0.054562980924368676
19264622.497847214 0.0318330160404061 0.05542443549486645 0.9681669839595938 -0.05542443549486645 0.9681669839595938 -0.05542443549486645 0.0318330160404061 0.05542443549486645
19575185.276585475 0.03196159930811773 0.05629910693064838 0.9680384006918823 -0.05629910693064838 0.9680384006918823 -0.05629910693064838 0.03196159930811773 0.05629910693064838
19890754.60240497 0.03209407517999597 0.05718717962950892 0.967905924820004 -0.05718717962950892 0.967905924820004 -0.05718717962950892 0.03209407517999597 0.05718717962950892
20211411.185279306 0.0322305577233003 0.05808883988871612 0.9677694422766996 -0.05808883988871612 0.9677694422766996 -0.05808883988871612 0.0322305577233003 0.05808883988871612
20537237.036298364 0.03237116401992985 0.0590042759065073 0.9676288359800701 -0.0590042759065073 0.9676288359800701 -0.0590042759065073 0.03237116401992985 0.0590042759065073
20868315.488643426 0.0325160142360163 0.059933677783210695 0.9674839857639838 -0.059933677783210695 0.9674839857639838 -0.059933677783210695 0.0325160142360163 0.059933677783210695
21204731.218900483 0.03266523169316516 0.060877237521993144 0.9673347683068348 -0.060877237521993144 0.9673347683068348 -0.060877237521993144 0.03266523169316516 0.060877237521993144
21546570.26871709 0.03281894294142191 0.06183514902923188 0.9671810570585783 -0.06183514902923188 0.9671810570585783 -0.06183514902923188 0.03281894294142191 0.06183514902923188
21893920.06680837 0.03297727783404577 0.06280760811450607 0.9670227221659543 -0.06280760811450607 0.9670227221659543 -0.06280760811450607 0.03297727783404577 0.06280760811450607
22246869.451317787 0.03314036960418039 0.06379481249020277 0.9668596303958197 -0.06379481249020277 0.9668596303958197 -0.06379481249020277 0.03314036960418039 0.06379481249020277
22605508.692538355 0.03330835494351772 0.06479696177072707 0.9666916450564823 -0.06479696177072707 0.9666916450564823 -0.06479696177072707 0.03330835494351772 0.06479696177072707
22969929.516000178 0.033481374083058346 0.06581425747130457 0.9665186259169418 -0.06581425747130457 0.9665186259169418 -0.06581425747130457 0.033481374083058346 0.06581425747130457
23340225.125930153 0.033659570876078675 0.06684690300635826 0.9663404291239214 -0.06684690300635826 0.9663404291239214 -0.06684690300635826 0.033659570876078675 0.06684690300635826
23716490.229089867 0.033843092883423735 0.06789510368743873 0.9661569071165764 -0.06789510368743873 0.9661569071165764 -0.06789510368743873 0.033843092883423735 0.06789510368743873
24098821.058997802 0.03403209146125085 0.0689590667206794 0.9659679085387491 -0.0689590667206794 0.9659679085387491 -0.0689590667206794 0.03403209146125085 0.0689590667206794
24487315.40054199 0.034226721851358805 0.07003900120374336 0.9657732781486411 -0.07003900120374336 0.9657732781486411 -0.07003900120374336 0.034226721851358805 0.07003900120374336
24882072.614989474 0.03442714327424393 0.0711351181222199 0.9655728567257562 -0.0711351181222199 0.9655728567257562 -0.0711351181222199 0.03442714327424393 0.0711351181222199
25283193.66539894 0.03463351902503315 0.07224763034542171 0.9653664809749669 -0.07224763034542171 0.9653664809749669 -0.07224763034542171 0.03463351902503315 0.07224763034542171
25690781.14244301 0.03484601657245204 0.07337675262152354 0.965153983427548 -0.07337675262152354 0.965153983427548 -0.07337675262152354 0.03484601657245204 0.07337675262152354
26104939.290646806 0.03506480766099358 0.07452270157197373 0.9649351923390065 -0.07452270157197373 0.9649351923390065 -0.07452270157197373 0.03506480766099358 0.07452270157197373
26525774.03504955 0.035290068416461366 0.07568569568509818 0.9647099315835387 -0.07568569568509818 0.9647099315835387 -0.07568569568509818 0.035290068416461366 0.07568569568509818
26953393.008295916 0.03552197945506814 0.07686595530880475 0.9644780205449317 -0.07686595530880475 0.9644780205449317 -0.07686595530880475 0.03552197945506814 0.07686595530880475
27387905.57816414 0.03576072599627814 0.07806370264228177 0.9642392740037219 -0.07806370264228177 0.9642392740037219 -0.07806370264228177 0.03576072599627814 0.07806370264228177
27829422.875537932 0.03600649797958788 0.0792791617265702 0.963993502020412 -0.0792791617265702 0.963993502020412 -0.0792791617265702 0.03600649797958788 0.0792791617265702
28278057.82282927 0.0362594901854467 0.0805125584338738 0.9637405098145534 -0.0805125584338738 0.9637405098145534 -0.0805125584338738 0.0362594901854467 0.0805125584338738
28733925.162859447 0.03651990236052369 0.08176412045545377 0.9634800976394764 -0.08176412045545377 0.9634800976394764 -0.08176412045545377 0.03651990236052369 0.08176412045545377
29197141.488205664 0.03678793934753193 0.08303407728793635 0.9632120606524681 -0.08303407728793635 0.9632120606524681 -0.08303407728793635 0.03678793934753193 0.08303407728793635
29667825.27102075 0.037063811219825785 0.08432266021784368 0.9629361887801744 -0.08432266021784368 0.9629361887801744 -0.08432266021784368 0.037063811219825785 0.08432266021784368
30146096.893333565 0.03734773342098866 0.08563010230413601 0.9626522665790115 -0.08563010230413601 0.9626522665790115 -0.08563010230413601 0.03734773342098866 0.08563010230413601
30632078.677837923 0.03763992690963151 0.08695663835853358 0.9623600730903686 -0.08695663835853358 0.9623600730903686 -0.08695663835853358 0.03763992690963151 0.08695663835853358
31125894.919177793 0.037940618309621414 0.08830250492336195 0.9620593816903786 -0.08830250492336195 0.9620593816903786 -0.08830250492336195 0.037940618309621414 0.08830250492336195
31627671.915736914 0.038250040065960084 0.08966794024664226 0.96174995993404 -0.08966794024664226 0.96174995993404 -0.08966794024664226 0.038250040065960084 0.08966794024664226
32137538.00194083 0.03856843060652839 0.09105318425412286 0.9614315693934717 -0.09105318425412286 0.9614315693934717 -0.09105318425412286 0.03856843060652839 0.09105318425412286
32655623.58107972 0.038896034509909194 0.09245847851792159 0.9611039654900907 -0.09245847851792159 0.9611039654900907 -0.09245847851792159 0.038896034509909194 0.09245847851792159
33182061.158660293 0.03923310267949511 0.09388406622142448 0.9607668973205047 -0.09388406622142448 0.9607668973205047 -0.09388406622142448 0.03923310267949511 0.09388406622142448
33716985.376295395 0.03957989252407936 0.09533019212005603 0.9604201074759207 -0.09533019212005603 0.9604201074759207 -0.09533019212005603 0.03957989252407936 0.09533019212005603
34260533.04613993 0.039936668145117885 0.09679710249751079 0.9600633318548819 -0.09679710249751079 0.9600633318548819 -0.09679710249751079 0.039936668145117885 0.09679710249751079
34812843.18588196 0.040303700530839884 0.09828504511700763 0.9596962994691604 -0.09828504511700763 0.9596962994691604 -0.09828504511700763 0.040303700530839884 0.09828504511700763
35374057.05429775 0.04068126775736715 0.0997942691670968 0.9593187322426328 -0.0997942691670968 0.9593187322426328 -0.0997942691670968 0.04068126775736715 0.0997942691670968
35944318.18738023 0.04106965519698876 0.1013250252015258 0.9589303448030113 -0.1013250252015258 0.9589303448030113 -0.1013250252015258 0.04106965519698876 0.1013250252015258
36523772.43504963 0.04146915573371624 0.10287756507263625 0.9585308442662838 -0.10287756507263625 0.9585308442662838 -0.10287756507263625 0.04146915573371624 0.10287756507263625
37112567.9984561 0.04188006998622358 0.10445214185773989 0.9581199300137767 -0.10445214185773989 0.9581199300137767 -0.10445214185773989 0.04188006998622358 0.10445214185773989
37710855.46788361 0.042302706538252306 0.10604900977789011 0.9576972934617477 -0.10604900977789011 0.9576972934617477 -0.10604900977789011 0.042302706538252306 0.10604900977789011
38318787.86126488 0.042737382176534305 0.10766842410843999 0.9572626178234654 -0.10766842410843999 0.9572626178234654 -0.10766842410843999 0.042737382176534305 0.10766842410843999
38936520.663317256 0.04318442213625703 0.10931064108075106 0.956815577863743 -0.10931064108075106 0.956815577863743 -0.10931064108075106 0.04318442213625703 0.10931064108075106
39564211.86530945 0.04364416035406172 0.11097591777438919 0.9563558396459384 -0.11097591777438919 0.9563558396459384 -0.11097591777438919 0.04364416035406172 0.11097591777438919
40202022.00546937 0.04411693972853291 0.11266451199912253 0.9558830602714673 -0.11266451199912253 0.9558830602714673 -0.11266451199912253 0.04411693972853291 0.11266451199912253
40850114.21004334 0.04460311238809778 0.11437668216600995 0.9553968876119023 -0.11437668216600995 0.9553968876119023 -0.11437668216600995 0.04460311238809778 0.11437668216600995
41508654.23501732 0.045103039966217215 0.11611268714685 0.9548969600337828 -0.11611268714685 0.9548969600337828 -0.11611268714685 0.045103039966217215 0.11611268714685
42177810.508510515 0.045617093883705356 0.11787278612123851 0.9543829061162947 -0.11787278612123851 0.9543829061162947 -0.11787278612123851 0.045617093883705356 0.11787278612123851
42857754.17385265 0.0461456556379723 0.11965723841046651 0.9538543443620275 -0.11965723841046651 0.9538543443620275 -0.11965723841046651 0.0461456556379723 0.11965723841046651
43548659.13335551 0.046689117098936896 0.12146630329747427 0.953310882901063 -0.12146630329747427 0.953310882901063 -0.12146630329747427 0.046689117098936896 0.12146630329747427
44250702.09279018 0.04724788081130795 0.12330023983206471 0.952752119188692 -0.12330023983206471 0.952752119188692 -0.12330023983206471 0.04724788081130795 0.12330023983206471
44964062.60658127 0.047822360302882276 0.12515930662056887 0.952177639697118 -0.12515930662056887 0.952177639697118 -0.12515930662056887 0.047822360302882276 0.12515930662056887
45688923.123729825 0.048412980398454486 0.12704376159914785 0.9515870196015456 -0.12704376159914785 0.9515870196015456 -0.12704376159914785 0.048412980398454486 0.12704376159914785
46425469.034476325 0.04902017753888072 0.12895386178991278 0.9509798224611195 -0.12895386178991278 0.9509798224611195 -0.12895386178991278 0.04902017753888072 0.12895386178991278
47173888.71771617 0.04964440010478215 0.13088986303904 0.9503555998952178 -0.13088986303904 0.9503555998952178 -0.13088986303904 0.04964440010478215 0.13088986303904
47934373.589179434 0.050286108744317694 0.13285201973606248 0.9497138912556825 -0.13285201973606248 0.9497138912556825 -0.13285201973606248 0.050286108744317694 0.13285201973606248
48707118.150387265 0.05094577670439833 0.1348405845135211 0.9490542232956016 -0.1348405845135211 0.9490542232956016 -0.1348405845135211 0.05094577670439833 0.1348405845135211
49492320.038397655 0.05162389016465634 0.1368558079261694 0.9483761098353436 -0.1368558079261694 0.9483761098353436 -0.1368558079261694 0.05162389016465634 0.1368558079261694
50290180.07635302 0.052320948573423176 0.13889793810893314 0.9476790514265769 -0.13889793810893314 0.9476790514265769 -0.13889793810893314 0.052320948573423176 0.13889793810893314
51100902.324842714 0.05303746498491181 0.14096722041284485 0.9469625350150882 -0.14096722041284485 0.9469625350150882 -0.14096722041284485 0.05303746498491181 0.14096722041284485
51924694.13409353 0.05377396639673761 0.14306389701818753 0.9462260336032622 -0.14306389701818753 0.9462260336032622 -0.14306389701818753 0.05377396639673761 0.14306389701818753
52761766.19700162 0.054530994086852795 0.1451882065241043 0.9454690059131473 -0.1451882065241043 0.9454690059131473 -0.1451882065241043 0.054530994086852795 0.1451882065241043
53612332.6030192 0.05530910394891018 0.14734038351395587 0.9446908960510899 -0.14734038351395587 0.9446908960510899 -0.14734038351395587 0.05530910394891018 0.14734038351395587
54476610.89291012 0.05610886682501092 0.14952065809573414 0.943891133174989 -0.14952065809573414 0.943891133174989 -0.14952065809573414 0.05610886682501092 0.14952065809573414
55354822.11438803 0.05693086883473298 0.15172925541687202 0.9430691311652669 -0.15172925541687202 0.9430691311652669 -0.15172925541687202 0.05693086883473298 0.15172925541687202
56247190.878651515 0.05777571169927772 0.1539663951528229 0.9422242883007222 -0.1539663951528229 0.9422242883007222 -0.1539663951528229 0.05777571169927772 0.1539663951528229
