!MGA-68563
!s-parameters at Vds=3V, Ids=10mA. Last updated 23/09/06 SW.

# GHZ S MA R 50

0.3	0.42	-37.10	9.18	158.40	0.07	5.40	0.27	-32.20
0.5	0.36	-57.20	8.72	145.00	0.07	3.80	0.19	-47.50
0.7	0.38	-76.30	8.09	133.90	0.07	3.90	0.19	-63.10
0.9	0.40	-92.50	7.44	123.90	0.07	4.10	0.18	-75.80
1.0	0.41	-99.70	7.14	119.30	0.07	4.10	0.17	-81.80
1.1	0.42	-106.70	6.84	115.00	0.07	4.20	0.17	-86.30
1.3	0.44	-119.50	6.31	106.80	0.07	4.40	0.16	-95.10
1.5	0.45	-132.30	5.86	99.40	0.07	4.50	0.17	-98.30
1.7	0.47	-141.10	5.44	92.30	0.07	4.60	0.16	-107.70
1.9	0.48	-150.50	5.06	85.60	0.08	4.60	0.15	-115.30
2.0	0.49	-154.60	4.90	82.50	0.08	4.60	0.15	-116.20
2.5	0.51	-176.40	4.20	67.00	0.08	3.10	0.14	-131.90
3.0	0.50	160.80	3.60	53.80	0.09	2.00	0.15	-153.10
3.5	0.50	142.70	3.21	41.80	0.09	0.30	0.15	-176.10
4.0	0.51	126.90	3.07	25.20	0.11	-8.60	0.08	162.40



!noise parameters at Vds=3V, Ids=10mA
! Freq    FMIN    GAMMA OPT    Rn @ 
! (GHz)   (dB)   Mag     Ang  50 Ohm

0.5	0.83	0.12	108.8	0.11
1.0	0.74	0.05	109.8	0.08
1.5	0.76	0.16	151.4	0.07
2.0	0.88	0.21	147.9	0.07
2.5	1.05	0.24	161.5	0.06
3.0	1.24	0.26	-173.1	0.09

