!MGA-68563
!s-parameters at Vds=3V, Ids=15mA. Last updated 23/09/06 SW.

# GHZ S MA R 50

0.3	0.35	-43.60	10.64	157.30	0.06	5.00	0.18	-41.30
0.5	0.30	-67.40	9.99	143.70	0.06	3.90	0.11	-64.30
0.7	0.33	-87.40	9.20	132.40	0.06	4.40	0.12	-82.80
0.9	0.36	-103.80	8.41	122.20	0.06	5.30	0.12	-96.80
1.0	0.37	-110.90	8.03	117.60	0.06	5.60	0.12	-103.50
1.1	0.39	-117.60	7.68	113.20	0.06	6.10	0.12	-107.50
1.3	0.41	-129.90	7.04	105.00	0.06	7.10	0.12	-116.50
1.5	0.43	-142.10	6.50	97.60	0.06	7.90	0.12	-116.30
1.7	0.46	-150.20	6.00	90.70	0.07	8.60	0.12	-127.30
1.9	0.46	-159.10	5.56	84.00	0.07	9.10	0.12	-134.70
2.0	0.47	-162.90	5.38	81.00	0.07	9.30	0.11	-135.30
2.5	0.50	176.50	4.56	65.80	0.08	8.70	0.12	-149.80
3.0	0.50	154.70	3.90	53.00	0.08	7.90	0.14	-170.30
3.5	0.50	137.50	3.47	41.40	0.09	5.90	0.15	167.50
4.0	0.50	122.10	3.29	24.70	0.11	-3.90	0.09	137.50



!noise parameters at Vds=3V, Ids=15mA
! Freq    FMIN    GAMMA OPT    Rn @ 
! (GHz)   (dB)   Mag     Ang  50 Ohm

0.5	0.65	0.10	119.90	0.09
1.0	0.55	0.06	158.20	0.07
1.5	0.59	0.13	163.00	0.07
2.0	0.81	0.21	160.60	0.06
2.5	0.99	0.22	172.00	0.06
3.0	1.17	0.25	-163.70	0.09




