!Agilent Technologies,E8358A,US40260201,A.04.06
!Agilent E8358A: A.04.06
!Date: Thursday, April 26, 2012 11:17:17
!Correction: S11(Full 2 Port SOLT,1,2) S21(Full 2 Port SOLT,1,2) S12(Full 2 Port SOLT,1,2) S22(Full 2 Port SOLT,1,2) 
!S2P File: Measurements: S11, S21, S12, S22:
# Hz S  MA   R 50
1.000000e+008 5.314757e-001 -5.270676e+001 1.114716e+001 1.501201e+002 4.171957e-002 -1.104553e+001 3.586125e-001 3.300271e+001
1.002969e+008 5.300463e-001 -5.292431e+001 1.114535e+001 1.497479e+002 4.213700e-002 -1.138080e+001 3.576185e-001 3.265969e+001
1.005938e+008 5.296910e-001 -5.267466e+001 1.117191e+001 1.494982e+002 4.224164e-002 -1.172003e+001 3.569049e-001 3.258516e+001
1.008906e+008 5.284340e-001 -5.297791e+001 1.118334e+001 1.493943e+002 4.217885e-002 -1.188939e+001 3.559466e-001 3.230162e+001
1.011875e+008 5.279111e-001 -5.289939e+001 1.119671e+001 1.490430e+002 4.184366e-002 -1.211503e+001 3.548827e-001 3.202055e+001
1.014844e+008 5.278441e-001 -5.300475e+001 1.120314e+001 1.488733e+002 4.220996e-002 -1.226937e+001 3.544468e-001 3.175728e+001
1.017813e+008 5.259770e-001 -5.296362e+001 1.119120e+001 1.488051e+002 4.210776e-002 -1.265656e+001 3.528236e-001 3.122114e+001
1.020781e+008 5.246287e-001 -5.297127e+001 1.118101e+001 1.484248e+002 4.236034e-002 -1.295794e+001 3.526280e-001 3.104000e+001
1.023750e+008 5.234757e-001 -5.301485e+001 1.121381e+001 1.482939e+002 4.226440e-002 -1.314669e+001 3.514785e-001 3.091818e+001
1.026719e+008 5.228944e-001 -5.318162e+001 1.120628e+001 1.481174e+002 4.240741e-002 -1.341857e+001 3.509660e-001 3.068839e+001
1.029688e+008 5.220006e-001 -5.317063e+001 1.118115e+001 1.479521e+002 4.235459e-002 -1.299559e+001 3.503048e-001 3.029258e+001
1.032656e+008 5.204270e-001 -5.325655e+001 1.118131e+001 1.476700e+002 4.251087e-002 -1.373092e+001 3.488953e-001 3.000485e+001
1.035625e+008 5.188459e-001 -5.335046e+001 1.120748e+001 1.473841e+002 4.204774e-002 -1.384353e+001 3.484515e-001 2.981202e+001
1.038594e+008 5.195104e-001 -5.336637e+001 1.125482e+001 1.472454e+002 4.222172e-002 -1.384772e+001 3.476343e-001 2.945391e+001
1.041563e+008 5.179073e-001 -5.346700e+001 1.123178e+001 1.469772e+002 4.232322e-002 -1.417668e+001 3.462875e-001 2.922605e+001
1.044531e+008 5.171197e-001 -5.341977e+001 1.123930e+001 1.470074e+002 4.219973e-002 -1.441072e+001 3.462826e-001 2.900542e+001
1.047500e+008 5.171133e-001 -5.369563e+001 1.123945e+001 1.467177e+002 4.218443e-002 -1.451765e+001 3.459289e-001 2.871384e+001
1.050469e+008 5.154812e-001 -5.345703e+001 1.127800e+001 1.465536e+002 4.224892e-002 -1.490276e+001 3.434915e-001 2.838584e+001
1.053438e+008 5.134181e-001 -5.360235e+001 1.125246e+001 1.462896e+002 4.246357e-002 -1.476137e+001 3.434900e-001 2.825941e+001
1.056406e+008 5.131621e-001 -5.366108e+001 1.127275e+001 1.461315e+002 4.229397e-002 -1.519251e+001 3.429322e-001 2.789034e+001
1.059375e+008 5.117489e-001 -5.369344e+001 1.127861e+001 1.460201e+002 4.234245e-002 -1.533592e+001 3.418771e-001 2.766044e+001
1.062344e+008 5.111136e-001 -5.365312e+001 1.124131e+001 1.456302e+002 4.263455e-002 -1.526939e+001 3.413405e-001 2.734622e+001
1.065313e+008 5.105848e-001 -5.368766e+001 1.128102e+001 1.454965e+002 4.272121e-002 -1.598920e+001 3.407145e-001 2.692893e+001
1.068281e+008 5.105969e-001 -5.372276e+001 1.126164e+001 1.452143e+002 4.270521e-002 -1.609813e+001 3.403401e-001 2.666249e+001
1.071250e+008 5.092020e-001 -5.371869e+001 1.128883e+001 1.451148e+002 4.225235e-002 -1.652577e+001 3.389824e-001 2.645037e+001
1.074219e+008 5.081877e-001 -5.389910e+001 1.124871e+001 1.450036e+002 4.245664e-002 -1.615776e+001 3.372968e-001 2.614418e+001
1.077188e+008 5.077622e-001 -5.387476e+001 1.127979e+001 1.446613e+002 4.234823e-002 -1.676873e+001 3.380155e-001 2.601070e+001
1.080156e+008 5.062813e-001 -5.408139e+001 1.129539e+001 1.444550e+002 4.214650e-002 -1.706499e+001 3.364916e-001 2.583032e+001
1.083125e+008 5.053159e-001 -5.406897e+001 1.128082e+001 1.442518e+002 4.278591e-002 -1.706418e+001 3.369102e-001 2.527954e+001
1.086094e+008 5.035735e-001 -5.407873e+001 1.126474e+001 1.440864e+002 4.272507e-002 -1.735665e+001 3.358270e-001 2.511090e+001
1.089063e+008 5.036262e-001 -5.405959e+001 1.130760e+001 1.438700e+002 4.230244e-002 -1.723199e+001 3.345939e-001 2.471361e+001
1.092031e+008 5.036755e-001 -5.412463e+001 1.130861e+001 1.436004e+002 4.243911e-002 -1.810686e+001 3.339213e-001 2.462496e+001
1.095000e+008 5.014336e-001 -5.421102e+001 1.131842e+001 1.434785e+002 4.265869e-002 -1.834253e+001 3.327111e-001 2.443261e+001
1.097969e+008 5.017955e-001 -5.425994e+001 1.130979e+001 1.432189e+002 4.268211e-002 -1.844804e+001 3.316099e-001 2.395863e+001
1.100938e+008 5.000849e-001 -5.422123e+001 1.130801e+001 1.432328e+002 4.242079e-002 -1.847906e+001 3.324938e-001 2.372694e+001
1.103906e+008 4.992524e-001 -5.430874e+001 1.130024e+001 1.429082e+002 4.288875e-002 -1.842029e+001 3.315462e-001 2.359205e+001
1.106875e+008 4.981096e-001 -5.449875e+001 1.128479e+001 1.426272e+002 4.283985e-002 -1.883781e+001 3.301816e-001 2.330714e+001
1.109844e+008 4.968243e-001 -5.439394e+001 1.131093e+001 1.426074e+002 4.282929e-002 -1.915778e+001 3.294770e-001 2.289482e+001
1.112813e+008 4.968879e-001 -5.432312e+001 1.134593e+001 1.422380e+002 4.291986e-002 -1.938272e+001 3.280786e-001 2.268634e+001
1.115781e+008 4.954480e-001 -5.462101e+001 1.132207e+001 1.420854e+002 4.259073e-002 -1.953224e+001 3.276693e-001 2.242260e+001
1.118750e+008 4.943014e-001 -5.461203e+001 1.132310e+001 1.420137e+002 4.294864e-002 -1.926229e+001 3.281823e-001 2.221431e+001
1.121719e+008 4.948658e-001 -5.444902e+001 1.135333e+001 1.417601e+002 4.292039e-002 -2.032714e+001 3.260393e-001 2.191121e+001
1.124688e+008 4.937303e-001 -5.472491e+001 1.136633e+001 1.414338e+002 4.282909e-002 -1.988405e+001 3.253335e-001 2.152125e+001
1.127656e+008 4.935641e-001 -5.465850e+001 1.138207e+001 1.411735e+002 4.264600e-002 -2.036723e+001 3.249639e-001 2.140106e+001
1.130625e+008 4.911216e-001 -5.474755e+001 1.136253e+001 1.410331e+002 4.252956e-002 -2.049926e+001 3.239295e-001 2.108848e+001
1.133594e+008 4.915300e-001 -5.474969e+001 1.135456e+001 1.409289e+002 4.294924e-002 -2.080218e+001 3.229683e-001 2.072054e+001
1.136563e+008 4.901083e-001 -5.467028e+001 1.136100e+001 1.406578e+002 4.314411e-002 -2.109700e+001 3.231052e-001 2.072992e+001
1.139531e+008 4.894110e-001 -5.463083e+001 1.134231e+001 1.404379e+002 4.301954e-002 -2.122803e+001 3.217182e-001 2.029384e+001
1.142500e+008 4.892360e-001 -5.491700e+001 1.134829e+001 1.402372e+002 4.303253e-002 -2.082557e+001 3.213477e-001 2.003502e+001
1.145469e+008 4.880616e-001 -5.497247e+001 1.135381e+001 1.400049e+002 4.286623e-002 -2.113749e+001 3.201064e-001 1.966660e+001
1.148438e+008 4.867827e-001 -5.493469e+001 1.136287e+001 1.398764e+002 4.262804e-002 -2.152626e+001 3.200607e-001 1.954412e+001
1.151406e+008 4.860477e-001 -5.483326e+001 1.134749e+001 1.398674e+002 4.265675e-002 -2.204212e+001 3.190935e-001 1.925161e+001
1.154375e+008 4.844106e-001 -5.488675e+001 1.135658e+001 1.396662e+002 4.301674e-002 -2.177941e+001 3.184504e-001 1.902149e+001
1.157344e+008 4.847732e-001 -5.500459e+001 1.137864e+001 1.392930e+002 4.272553e-002 -2.240006e+001 3.177397e-001 1.876942e+001
1.160313e+008 4.836674e-001 -5.512650e+001 1.137257e+001 1.390344e+002 4.277512e-002 -2.255347e+001 3.177983e-001 1.836906e+001
1.163281e+008 4.827369e-001 -5.524647e+001 1.136409e+001 1.389355e+002 4.280205e-002 -2.301943e+001 3.162906e-001 1.799708e+001
1.166250e+008 4.821494e-001 -5.523796e+001 1.138901e+001 1.386021e+002 4.280213e-002 -2.307859e+001 3.164474e-001 1.777893e+001
1.169219e+008 4.815186e-001 -5.518724e+001 1.137738e+001 1.384225e+002 4.281464e-002 -2.328255e+001 3.153740e-001 1.750386e+001
1.172188e+008 4.821616e-001 -5.517025e+001 1.139000e+001 1.383116e+002 4.316889e-002 -2.284221e+001 3.151490e-001 1.738847e+001
1.175156e+008 4.806912e-001 -5.519279e+001 1.136040e+001 1.382112e+002 4.303484e-002 -2.314394e+001 3.142908e-001 1.713872e+001
1.178125e+008 4.794000e-001 -5.540538e+001 1.136674e+001 1.379294e+002 4.333395e-002 -2.357913e+001 3.134321e-001 1.700256e+001
1.181094e+008 4.779928e-001 -5.537694e+001 1.140329e+001 1.376434e+002 4.335256e-002 -2.405700e+001 3.127884e-001 1.655579e+001
1.184063e+008 4.789067e-001 -5.535467e+001 1.140301e+001 1.376497e+002 4.277803e-002 -2.378164e+001 3.121581e-001 1.626214e+001
1.187031e+008 4.765984e-001 -5.546748e+001 1.137006e+001 1.373275e+002 4.327496e-002 -2.397608e+001 3.114836e-001 1.624522e+001
1.190000e+008 4.764326e-001 -5.538200e+001 1.140610e+001 1.372415e+002 4.313262e-002 -2.436690e+001 3.100463e-001 1.581898e+001
1.192969e+008 4.753018e-001 -5.556819e+001 1.141286e+001 1.369384e+002 4.315612e-002 -2.474830e+001 3.095651e-001 1.566835e+001
1.195938e+008 4.748737e-001 -5.558440e+001 1.140751e+001 1.366972e+002 4.310999e-002 -2.465154e+001 3.099914e-001 1.524670e+001
1.198906e+008 4.745552e-001 -5.544940e+001 1.137989e+001 1.364898e+002 4.318407e-002 -2.530818e+001 3.084516e-001 1.505770e+001
1.201875e+008 4.745982e-001 -5.566097e+001 1.142201e+001 1.363792e+002 4.304795e-002 -2.513505e+001 3.082314e-001 1.477810e+001
1.204844e+008 4.718603e-001 -5.570368e+001 1.140411e+001 1.360795e+002 4.323969e-002 -2.570448e+001 3.072361e-001 1.472508e+001
1.207813e+008 4.723680e-001 -5.566251e+001 1.141225e+001 1.359640e+002 4.354090e-002 -2.534546e+001 3.069081e-001 1.438040e+001
1.210781e+008 4.712061e-001 -5.574545e+001 1.141685e+001 1.358349e+002 4.335055e-002 -2.609649e+001 3.063264e-001 1.407316e+001
1.213750e+008 4.713569e-001 -5.575140e+001 1.140981e+001 1.355544e+002 4.312469e-002 -2.606689e+001 3.059501e-001 1.355725e+001
1.216719e+008 4.693131e-001 -5.568961e+001 1.143110e+001 1.353580e+002 4.323378e-002 -2.617297e+001 3.050217e-001 1.356150e+001
1.219688e+008 4.694083e-001 -5.585794e+001 1.140905e+001 1.352294e+002 4.321570e-002 -2.601332e+001 3.048046e-001 1.339134e+001
1.222656e+008 4.692327e-001 -5.587682e+001 1.141603e+001 1.349911e+002 4.357266e-002 -2.659729e+001 3.044123e-001 1.293430e+001
1.225625e+008 4.687441e-001 -5.580382e+001 1.141637e+001 1.348807e+002 4.319767e-002 -2.620297e+001 3.034377e-001 1.267591e+001
1.228594e+008 4.662152e-001 -5.581472e+001 1.144901e+001 1.346394e+002 4.315016e-002 -2.666306e+001 3.020471e-001 1.246524e+001
1.231563e+008 4.650954e-001 -5.584015e+001 1.143795e+001 1.344748e+002 4.323068e-002 -2.729171e+001 3.021711e-001 1.231085e+001
1.234531e+008 4.667928e-001 -5.583110e+001 1.142932e+001 1.341691e+002 4.339354e-002 -2.760335e+001 3.015930e-001 1.192937e+001
1.237500e+008 4.650362e-001 -5.602827e+001 1.145910e+001 1.339970e+002 4.285337e-002 -2.776669e+001 3.015694e-001 1.167366e+001
1.240469e+008 4.641059e-001 -5.606254e+001 1.144920e+001 1.338981e+002 4.324317e-002 -2.758714e+001 3.007841e-001 1.147535e+001
1.243438e+008 4.648079e-001 -5.601691e+001 1.148884e+001 1.335562e+002 4.342232e-002 -2.808934e+001 2.994505e-001 1.120567e+001
1.246406e+008 4.635913e-001 -5.608085e+001 1.142837e+001 1.335019e+002 4.325521e-002 -2.818508e+001 2.997291e-001 1.089878e+001
1.249375e+008 4.610919e-001 -5.616109e+001 1.144985e+001 1.331472e+002 4.336204e-002 -2.807552e+001 2.975005e-001 1.085111e+001
1.252344e+008 4.606369e-001 -5.614819e+001 1.146104e+001 1.330569e+002 4.311910e-002 -2.780647e+001 2.983106e-001 1.053477e+001
1.255313e+008 4.609182e-001 -5.614494e+001 1.144646e+001 1.330838e+002 4.340972e-002 -2.902889e+001 2.970504e-001 1.044658e+001
1.258281e+008 4.601460e-001 -5.607429e+001 1.145812e+001 1.327484e+002 4.326962e-002 -2.853053e+001 2.967881e-001 9.992296e+000
1.261250e+008 4.594105e-001 -5.634355e+001 1.147856e+001 1.324712e+002 4.337773e-002 -2.891251e+001 2.963434e-001 9.665648e+000
1.264219e+008 4.586366e-001 -5.628234e+001 1.146367e+001 1.323062e+002 4.340313e-002 -2.935296e+001 2.952360e-001 9.570921e+000
1.267188e+008 4.583748e-001 -5.640395e+001 1.148477e+001 1.321540e+002 4.329979e-002 -2.921381e+001 2.949694e-001 9.203054e+000
1.270156e+008 4.571814e-001 -5.633786e+001 1.148437e+001 1.318642e+002 4.330814e-002 -2.963536e+001 2.952012e-001 8.946388e+000
1.273125e+008 4.567092e-001 -5.641436e+001 1.149962e+001 1.316051e+002 4.321173e-002 -3.033568e+001 2.936422e-001 8.773748e+000
1.276094e+008 4.558758e-001 -5.641921e+001 1.147897e+001 1.314851e+002 4.340942e-002 -3.020308e+001 2.939132e-001 8.437897e+000
1.279063e+008 4.548532e-001 -5.659748e+001 1.149267e+001 1.312319e+002 4.324613e-002 -2.991658e+001 2.927678e-001 8.382313e+000
1.282031e+008 4.533159e-001 -5.655624e+001 1.145612e+001 1.309885e+002 4.348187e-002 -3.078470e+001 2.925931e-001 7.984704e+000
1.285000e+008 4.537235e-001 -5.651588e+001 1.144461e+001 1.310780e+002 4.345387e-002 -3.008354e+001 2.915396e-001 7.645410e+000
1.287969e+008 4.538546e-001 -5.649879e+001 1.144962e+001 1.307564e+002 4.355904e-002 -3.093446e+001 2.907999e-001 7.467037e+000
1.290938e+008 4.522861e-001 -5.663777e+001 1.148630e+001 1.305962e+002 4.350269e-002 -3.103778e+001 2.907988e-001 7.268704e+000
1.293906e+008 4.517067e-001 -5.671055e+001 1.145910e+001 1.305316e+002 4.374562e-002 -3.117472e+001 2.900285e-001 6.786572e+000
1.296875e+008 4.515637e-001 -5.676121e+001 1.150931e+001 1.302279e+002 4.335281e-002 -3.142190e+001 2.893766e-001 6.825828e+000
1.299844e+008 4.499085e-001 -5.671980e+001 1.147691e+001 1.299858e+002 4.324217e-002 -3.148226e+001 2.889763e-001 6.479021e+000
1.302813e+008 4.495768e-001 -5.660189e+001 1.146717e+001 1.297886e+002 4.326676e-002 -3.131701e+001 2.882047e-001 6.473878e+000
1.305781e+008 4.502282e-001 -5.681659e+001 1.144524e+001 1.296428e+002 4.350008e-002 -3.167081e+001 2.872230e-001 6.009298e+000
1.308750e+008 4.486612e-001 -5.671926e+001 1.145978e+001 1.295868e+002 4.343392e-002 -3.236945e+001 2.864657e-001 5.748598e+000
1.311719e+008 4.476855e-001 -5.678628e+001 1.145153e+001 1.291783e+002 4.376849e-002 -3.212277e+001 2.867154e-001 5.521613e+000
1.314688e+008 4.479896e-001 -5.688546e+001 1.146544e+001 1.291070e+002 4.370816e-002 -3.238854e+001 2.860374e-001 5.334500e+000
1.317656e+008 4.469983e-001 -5.695042e+001 1.146509e+001 1.288880e+002 4.331896e-002 -3.290642e+001 2.858845e-001 5.091527e+000
1.320625e+008 4.466864e-001 -5.697763e+001 1.149601e+001 1.287688e+002 4.333800e-002 -3.281332e+001 2.839250e-001 4.810631e+000
1.323594e+008 4.457433e-001 -5.679963e+001 1.145808e+001 1.285049e+002 4.383811e-002 -3.297960e+001 2.841120e-001 4.549034e+000
1.326563e+008 4.454235e-001 -5.695348e+001 1.148301e+001 1.283533e+002 4.352809e-002 -3.321082e+001 2.834859e-001 4.173900e+000
1.329531e+008 4.442761e-001 -5.700448e+001 1.148395e+001 1.281161e+002 4.330705e-002 -3.318054e+001 2.830681e-001 4.239373e+000
1.332500e+008 4.439455e-001 -5.710572e+001 1.149417e+001 1.280230e+002 4.351921e-002 -3.393271e+001 2.827720e-001 3.818171e+000
1.335469e+008 4.437061e-001 -5.705931e+001 1.147746e+001 1.279327e+002 4.376001e-002 -3.418288e+001 2.827716e-001 3.597009e+000
1.338438e+008 4.438396e-001 -5.693415e+001 1.147919e+001 1.274692e+002 4.363241e-002 -3.397505e+001 2.811739e-001 3.140873e+000
1.341406e+008 4.430172e-001 -5.698428e+001 1.150440e+001 1.274455e+002 4.323620e-002 -3.405824e+001 2.809072e-001 3.210982e+000
1.344375e+008 4.427407e-001 -5.712713e+001 1.151225e+001 1.272391e+002 4.355423e-002 -3.417941e+001 2.808970e-001 2.911624e+000
1.347344e+008 4.411479e-001 -5.705209e+001 1.149113e+001 1.270132e+002 4.380811e-002 -3.438687e+001 2.807485e-001 2.525577e+000
1.350313e+008 4.421770e-001 -5.729103e+001 1.149900e+001 1.268149e+002 4.369129e-002 -3.496513e+001 2.797988e-001 2.533019e+000
1.353281e+008 4.406146e-001 -5.723425e+001 1.147979e+001 1.266573e+002 4.356014e-002 -3.513287e+001 2.794752e-001 1.947791e+000
1.356250e+008 4.393468e-001 -5.728196e+001 1.149096e+001 1.265014e+002 4.373949e-002 -3.504396e+001 2.794768e-001 1.904233e+000
1.359219e+008 4.394713e-001 -5.734274e+001 1.150813e+001 1.263226e+002 4.387960e-002 -3.482524e+001 2.785492e-001 1.652184e+000
1.362188e+008 4.376459e-001 -5.725086e+001 1.147806e+001 1.261681e+002 4.359169e-002 -3.531051e+001 2.775128e-001 1.477153e+000
1.365156e+008 4.382235e-001 -5.734188e+001 1.150668e+001 1.257981e+002 4.356452e-002 -3.511189e+001 2.774162e-001 1.154060e+000
1.368125e+008 4.379286e-001 -5.759483e+001 1.151343e+001 1.257786e+002 4.366957e-002 -3.548978e+001 2.768971e-001 8.008031e-001
1.371094e+008 4.368971e-001 -5.747335e+001 1.150082e+001 1.255662e+002 4.343930e-002 -3.510427e+001 2.762442e-001 7.485746e-001
1.374063e+008 4.366089e-001 -5.747477e+001 1.150273e+001 1.253473e+002 4.375907e-002 -3.574654e+001 2.770008e-001 3.031367e-001
1.377031e+008 4.349300e-001 -5.764334e+001 1.152133e+001 1.251599e+002 4.387357e-002 -3.621801e+001 2.753130e-001 2.515057e-001
1.380000e+008 4.357550e-001 -5.757638e+001 1.151698e+001 1.251096e+002 4.349549e-002 -3.646044e+001 2.749843e-001 3.404287e-002
1.382969e+008 4.361429e-001 -5.762522e+001 1.151921e+001 1.247554e+002 4.374558e-002 -3.649710e+001 2.750697e-001 -1.421310e-001
1.385938e+008 4.350322e-001 -5.760723e+001 1.148851e+001 1.246079e+002 4.368805e-002 -3.679347e+001 2.736170e-001 -6.142303e-001
1.388906e+008 4.342323e-001 -5.772281e+001 1.148963e+001 1.243895e+002 4.343459e-002 -3.683496e+001 2.737505e-001 -8.184484e-001
1.391875e+008 4.329045e-001 -5.765398e+001 1.153263e+001 1.242433e+002 4.378600e-002 -3.687052e+001 2.722549e-001 -9.426660e-001
1.394844e+008 4.333092e-001 -5.749046e+001 1.150115e+001 1.240521e+002 4.393885e-002 -3.733945e+001 2.725098e-001 -1.266762e+000
1.397813e+008 4.324937e-001 -5.774957e+001 1.151997e+001 1.239259e+002 4.379764e-002 -3.729320e+001 2.716266e-001 -1.253652e+000
1.400781e+008 4.316771e-001 -5.777203e+001 1.152542e+001 1.236703e+002 4.333977e-002 -3.748734e+001 2.711848e-001 -1.429193e+000
1.403750e+008 4.322119e-001 -5.774458e+001 1.152555e+001 1.234670e+002 4.386857e-002 -3.814410e+001 2.712684e-001 -1.675242e+000
1.406719e+008 4.304469e-001 -5.771203e+001 1.150710e+001 1.232349e+002 4.375600e-002 -3.778605e+001 2.708239e-001 -2.050256e+000
1.409688e+008 4.314387e-001 -5.769461e+001 1.152512e+001 1.232057e+002 4.324595e-002 -3.830250e+001 2.705844e-001 -2.437987e+000
1.412656e+008 4.293596e-001 -5.796251e+001 1.154256e+001 1.229134e+002 4.388114e-002 -3.828020e+001 2.701011e-001 -2.617002e+000
1.415625e+008 4.299822e-001 -5.786889e+001 1.150549e+001 1.227612e+002 4.350292e-002 -3.838953e+001 2.701928e-001 -2.620554e+000
1.418594e+008 4.294272e-001 -5.777777e+001 1.151465e+001 1.225207e+002 4.378134e-002 -3.904414e+001 2.688854e-001 -2.885993e+000
1.421563e+008 4.275628e-001 -5.793348e+001 1.151373e+001 1.223748e+002 4.367723e-002 -3.907426e+001 2.681019e-001 -3.279518e+000
1.424531e+008 4.270382e-001 -5.792864e+001 1.154321e+001 1.221454e+002 4.380205e-002 -3.907975e+001 2.686103e-001 -3.464623e+000
1.427500e+008 4.267006e-001 -5.801319e+001 1.154049e+001 1.220833e+002 4.368339e-002 -3.907013e+001 2.669124e-001 -3.633271e+000
1.430469e+008 4.266901e-001 -5.809098e+001 1.152158e+001 1.218098e+002 4.343715e-002 -3.953187e+001 2.670600e-001 -3.958104e+000
1.433438e+008 4.257511e-001 -5.799989e+001 1.152583e+001 1.215593e+002 4.381533e-002 -3.952489e+001 2.669425e-001 -3.995536e+000
1.436406e+008 4.257068e-001 -5.806809e+001 1.152761e+001 1.213904e+002 4.400172e-002 -3.983462e+001 2.653892e-001 -4.344576e+000
1.439375e+008 4.247836e-001 -5.809773e+001 1.150198e+001 1.211613e+002 4.393869e-002 -3.998384e+001 2.651911e-001 -4.640785e+000
1.442344e+008 4.242997e-001 -5.807447e+001 1.151170e+001 1.209747e+002 4.373160e-002 -3.969890e+001 2.654733e-001 -4.973071e+000
1.445313e+008 4.245043e-001 -5.823277e+001 1.155488e+001 1.208258e+002 4.389229e-002 -4.015900e+001 2.642799e-001 -5.018935e+000
1.448281e+008 4.236768e-001 -5.814972e+001 1.153535e+001 1.207357e+002 4.386901e-002 -4.076223e+001 2.641106e-001 -5.239945e+000
